% MetaData :path,/Users/cwheeler/PycharmProjects/WaferScreen/waferscreen/pro/princeton/8/Band02/2020-10-28/1603928908.10-F_4.20_TO_4.40-BW_100.0-ATTEN_20.0-VOLTS_0.000_s21.csv|atten,20|band,2|datetime,2020-10-28 17:48:28|freq_center_GHz,4.300000000000001|freq_max_GHz,4.4|freq_min_GHz,4.2|freq_span_GHz,0.20000000000000018|freq_step,20002.00020002002|ifband_hz,100.0|location,princeton|plot_path,/Users/cwheeler/PycharmProjects/WaferScreen/waferscreen/pro/princeton/8/Band02/2020-10-28/1603928908.10-F_4.20_TO_4.40-BW_100.0-ATTEN_20.0-VOLTS_0.000_s21.pdf|raw_path,/Users/cwheeler/PycharmProjects/WaferScreen/waferscreen/raw/princeton/SMBK_wafer8/1603928908.10-F_4.20_TO_4.40-BW_100.0-ATTEN_20.0-VOLTS_0.000.CSV|time,1603928908.1|volts,0.0|wafer,8
% Header :freq_ghz,real,imag
4.2,0.060659672550267205,0.0033078038922222386
4.2000200020000005,0.06064286948206117,0.0033259757487018905
4.200040004,0.060654033188088055,0.0033296729071262653
4.200060006,0.06065725068949831,0.0033243179130379233
4.2000800080000005,0.06062952540494081,0.0032956818272351987
4.20010001,0.060638295877769165,0.003314506783593508
4.200120012,0.06065932778111345,0.0033232368889921336
4.2001400140000005,0.060650024810790494,0.0033134484411245745
4.200160016,0.06061657202528699,0.0033330358457556164
4.200180018,0.06063431778771694,0.0033150220298285016
4.2002000200000005,0.06063710405299731,0.0033164946275754323
4.200220022,0.06060530113334307,0.0033261710456899546
4.200240024,0.060593368075930874,0.0033121529911754807
4.2002600260000005,0.06061423392877495,0.003301586111920052
4.200280028,0.06061333708957008,0.0032819544955905965
4.20030003,0.060633149409204945,0.0032933111991758843
4.2003200320000005,0.06062657603697667,0.0033187330415806807
4.200340034,0.06059288886844841,0.0032875973770497696
4.200360036,0.06057253520400627,0.0033238255816750856
4.2003800380000005,0.06061757099335041,0.0033106022346995854
4.20040004,0.06059684471496955,0.003297949405690507
4.200420042,0.06060590445350708,0.0033166534337155384
4.2004400440000005,0.06060054311261068,0.003287046100401092
4.200460046,0.06058844795725847,0.003291307230216905
4.200480048,0.06056242077687739,0.0033147293599857346
4.2005000500100005,0.060567921662304056,0.003324520580271724
4.200520052010001,0.060579704403852096,0.0033001553609057557
4.20054005401,0.060601198251882614,0.0033280414342492376
4.2005600560100005,0.06057832022131616,0.0033036843929212106
4.200580058010001,0.06055909831832905,0.003313366936226532
4.20060006001,0.060551276140269214,0.0033058387983449684
4.2006200620100005,0.060550431494510455,0.003320489411044854
4.200640064010001,0.06054428473701394,0.003308023834223014
4.20066006601,0.06057976067350966,0.0032938190510551253
4.2006800680100005,0.060528718507708634,0.0032844914643269663
4.200700070010001,0.06054048277055615,0.003318578884841772
4.20072007201,0.06056315302870026,0.0033092860999100193
4.2007400740100005,0.0605488330633701,0.0033036495085631314
4.200760076010001,0.06053355336016876,0.00331080656063271
4.20078007801,0.06051201783255629,0.0033011152286769527
4.2008000800100005,0.06052034660001585,0.003304136756602582
4.200820082010001,0.06051974371835615,0.0033020677329669013
4.20084008401,0.06053552526823494,0.00328302756724793
4.2008600860100005,0.06053330930682896,0.0032990273099501657
4.200880088010001,0.06049171643880389,0.0033042236764194675
4.20090009001,0.060524301861833815,0.003339253556421125
4.2009200920100005,0.06049367986803887,0.0033016306172398667
4.200940094010001,0.06052286918176369,0.0032956509925693225
4.20096009601,0.06050290651591237,0.003300940157123254
4.2009800980100005,0.060509452250325654,0.003309349788262226
4.201000100010001,0.06049678302052032,0.0033127163112893834
4.20102010201,0.06047622157337,0.0032973373948012585
4.2010401040100005,0.06048138842517384,0.0033012616691327455
4.201060106010001,0.06049042505371583,0.003285471435791179
4.20108010801,0.060493672878333696,0.003299923258239159
4.2011001100100005,0.06050006527240302,0.003289138767544688
4.201120112010001,0.06047794777951719,0.0032971884869106294
4.20114011401,0.0604543742831008,0.0032857970419465643
4.2011601160100005,0.06046487989175477,0.003337270623697243
4.201180118010001,0.06046244862077342,0.0033021124195824862
4.20120012001,0.060445121973476866,0.003301160546295402
4.2012201220100005,0.06045229507349015,0.0032928048528303097
4.201240124010001,0.060468737457727906,0.0032882041551672743
4.20126012601,0.060459597804745344,0.003301778736279185
4.2012801280100005,0.06042210995039293,0.00330497127491872
4.201300130010001,0.060438075203318425,0.003279761673317578
4.20132013201,0.060458696768835085,0.0033029479141375648
4.2013401340100005,0.06044566930796911,0.0032849767062214513
4.201360136010001,0.06045005568152703,0.003277692540667846
4.20138013801,0.06041432878904014,0.0032869500733943985
4.2014001400100005,0.06042285410035593,0.003330256973147417
4.201420142010001,0.06042275925522414,0.0032897452316147345
4.20144014401,0.06040997971438539,0.0032974664460656555
4.2014601460100005,0.06041222213271738,0.003297392357634297
4.201480148010001,0.06042443795781381,0.003276616221433281
4.20150015002,0.06043041074301783,0.0033029786762777333
4.2015201520200005,0.060398256645059156,0.003334832554835885
4.20154015402,0.06040614203356887,0.003295453208921311
4.20156015602,0.06039799768510401,0.0033206056368648255
4.2015801580200005,0.060395806686391704,0.0033028745370977768
4.20160016002,0.06042590345679554,0.0033140319569613073
4.20162016202,0.06039659456318862,0.0033177104237533672
4.2016401640200005,0.06038642757504338,0.0032955996241159115
4.20166016602,0.060389974913257184,0.0033258401748076163
4.20168016802,0.060371101163580965,0.0032866550049945494
4.2017001700200005,0.060397572375775324,0.003306012366853215
4.20172017202,0.06040547883511141,0.0032962053692732057
4.20174017402,0.060376754339876534,0.0033170022864313364
4.2017601760200005,0.060392872936732137,0.003282739013824979
4.20178017802,0.060369660727619144,0.003302940941930895
4.20180018002,0.06036673016117132,0.0032992317521168234
4.2018201820200005,0.06037207427717742,0.00329314921061296
4.20184018402,0.060360161605202356,0.003293197087396206
4.20186018602,0.06036230166099528,0.0032915554402136726
4.2018801880200005,0.06036869855107974,0.0032992373358418543
4.20190019002,0.06035590702908208,0.003299152841174647
4.20192019202,0.06036709818324116,0.003291529653464721
4.2019401940200005,0.060324325198225226,0.0032667892450598188
4.20196019602,0.060355172880297396,0.0033018928996524505
4.20198019802,0.060348107736206344,0.0033074167612092836
4.2020002000200005,0.060353119368947584,0.003313579241912376
4.20202020202,0.06035972330427143,0.003297429768586463
4.20204020402,0.06032753547143847,0.0033078727246150033
4.2020602060200005,0.060328741616529485,0.0033292119793895923
4.20208020802,0.060314208756291794,0.003303801987068162
4.20210021002,0.06032837902837637,0.0033173456801989104
4.2021202120200005,0.06029719522659075,0.0033141346202779053
4.20214021402,0.0603187560234232,0.0032815782134440336
4.20216021602,0.06032977192732239,0.003286278337595358
4.2021802180200005,0.060323883839655326,0.003279749779721678
4.20220022002,0.0602949219192013,0.0032827557672699473
4.20222022202,0.06028810077808999,0.0032988658255373657
4.2022402240200005,0.06034116355422926,0.0032874142441400318
4.20226022602,0.060318524114004034,0.003291244411146945
4.20228022802,0.060312465743069026,0.0033000331481426934
4.2023002300200005,0.060307766326235204,0.003273611558271156
4.20232023202,0.06026500307235156,0.0032863364555845535
4.20234023402,0.06027239320014397,0.003269854503266948
4.2023602360200005,0.06026740055704242,0.003293708881657885
4.20238023802,0.060293881621498326,0.0032743468256657086
4.20240024002,0.060287200867558614,0.0032949088150882183
4.2024202420200005,0.060287088133416704,0.003302374849563994
4.20244024402,0.060282445418417485,0.0032888919841752885
4.20246024602,0.06027719964983626,0.00326591581905066
4.2024802480200005,0.06027100089563898,0.0032714868790779898
4.202500250030001,0.06025739326566496,0.0033028244171680408
4.20252025203,0.06026582583810443,0.0032871037320530982
4.2025402540300005,0.06024902614855279,0.0032778508861115996
4.202560256030001,0.060257885519781056,0.0032763925874844894
4.20258025803,0.06026165600748931,0.003297426749422185
4.2026002600300005,0.06024923629322138,0.0032928892931078993
4.202620262030001,0.06025526289451042,0.003265365703875104
4.20264026403,0.06023977919392669,0.003291848776973651
4.2026602660300005,0.06024747393940569,0.0032739567436513217
4.202680268030001,0.06025164281869332,0.0032892559350126494
4.20270027003,0.060240705920254364,0.0032718806278834453
4.2027202720300005,0.06023208796475353,0.003279722173803879
4.202740274030001,0.06024405620295852,0.0033068458354278147
4.20276027603,0.06023812354045501,0.003288185837935431
4.2027802780300005,0.06024838364513717,0.003280383478854689
4.202800280030001,0.06023697476428323,0.0032870778165938704
4.20282028203,0.06022852574938964,0.003288449498941854
4.2028402840300005,0.060211517542079415,0.0032786718770767744
4.202860286030001,0.0602257169022434,0.0032720774994649394
4.20288028803,0.06021916746722977,0.0032762470950203904
4.2029002900300005,0.06019718289808406,0.003292991171681064
4.202920292030001,0.06021628822832495,0.003290177662662452
4.20294029403,0.060218819480654696,0.0032585441609125705
4.2029602960300005,0.06020166477212361,0.003296073832969241
4.202980298030001,0.06019109731363133,0.0033010822863476525
4.20300030003,0.060202073102573646,0.0032904580250225964
4.2030203020300005,0.06019273713960353,0.003319559465568262
4.203040304030001,0.06019465595453039,0.0033204377682246318
4.20306030603,0.06019342643364983,0.0032647061222791664
4.2030803080300005,0.06019783291004063,0.003297097444998321
4.203100310030001,0.06018658572513777,0.003287719604602805
4.20312031203,0.060190610452972824,0.003281678398277426
4.2031403140300005,0.06019931488283121,0.0033062295317262823
4.203160316030001,0.06020761892465267,0.0032858350983442546
4.20318031803,0.06018251902555607,0.0032955028711523404
4.2032003200300005,0.06016028389607832,0.003281927416316564
4.203220322030001,0.060175317756178286,0.003291192352281102
4.20324032403,0.06018176275416893,0.0032875194820399787
4.2032603260300005,0.06015489952706863,0.0032756423292043726
4.203280328030001,0.06015487807829362,0.0032776939167861183
4.20330033003,0.06016392818570529,0.0032880778919108875
4.2033203320300006,0.060195919421509134,0.003290364370826424
4.203340334030001,0.060172245595482815,0.0032720742306004908
4.20336033603,0.06014333238161427,0.0032832970383621487
4.2033803380300006,0.06014379710057715,0.003288310743585869
4.203400340030001,0.060163837927127116,0.0033020333639196403
4.20342034203,0.06013725020246941,0.003293674854216432
4.2034403440300006,0.060130689081677166,0.0032916728930455887
4.203460346030001,0.06017035279100862,0.0032998070151352126
4.20348034803,0.06014890380510001,0.003286739432195424
4.2035003500400006,0.06012124331734801,0.0032951396959215295
4.20352035204,0.06015372096231223,0.0032863587028325626
4.20354035404,0.060115843256920716,0.003288624024303667
4.203560356040001,0.06014833291776653,0.0032571666063466904
4.20358035804,0.06012534090049745,0.0032956532874618815
4.20360036004,0.06011152063366378,0.0033079657198706695
4.203620362040001,0.06012569957172043,0.003283616779125217
4.20364036404,0.060112014094405905,0.0032652760123762347
4.20366036604,0.06008995949972904,0.003284078865383802
4.203680368040001,0.06010868744523197,0.0032943277916954745
4.20370037004,0.06013692701694213,0.0032596045404780297
4.20372037204,0.06012602415828987,0.0032830439628491956
4.203740374040001,0.0601043217773392,0.0032927047177641108
4.20376037604,0.06008613131735364,0.003267660567482825
4.20378037804,0.06010031575314973,0.0032942300474525475
4.203800380040001,0.06010386932711657,0.003284086266461825
4.20382038204,0.06011555099204137,0.003290491694437934
4.20384038404,0.060090309754551596,0.003258281166613867
4.203860386040001,0.060093738206817404,0.0032802089263138726
4.20388038804,0.06010424756314299,0.003309594348764466
4.20390039004,0.06008090644760055,0.00326829238718173
4.203920392040001,0.0600638893727288,0.0032779155874601423
4.20394039404,0.06007841908229502,0.003316962177625834
4.20396039604,0.06007957256678175,0.0033000979693777743
4.203980398040001,0.06010560143841521,0.003280693162213945
4.20400040004,0.06009096198628416,0.0032873180604219773
4.20402040204,0.06005622361461314,0.00330194121824786
4.204040404040001,0.06006687836288666,0.0033080484397530995
4.20406040604,0.06005375416189456,0.0032893817605651673
4.20408040804,0.06005690788561266,0.003283299765402495
4.204100410040001,0.06006448719214753,0.0032827198777636533
4.20412041204,0.06007725869469964,0.0032783361886255385
4.20414041404,0.06005588418284679,0.0032801512771252796
4.204160416040001,0.06005713199624135,0.003271333256475873
4.20418041804,0.06004508615417249,0.0032837789244034923
4.20420042004,0.060047480854759444,0.0033037772478435624
4.204220422040001,0.06006182853013721,0.0032872541818624486
4.20424042404,0.060077373962293276,0.0032695041270690353
4.20426042604,0.060040486614674926,0.0033020323088758068
4.204280428040001,0.06003462453282052,0.003291159311278654
4.20430043004,0.060047885778152,0.003284515311002472
4.20432043204,0.06005079264378527,0.0032808014676776708
4.204340434040001,0.06002884109335581,0.0032678916417704616
4.20436043604,0.06004190017925621,0.003289106202236422
4.20438043804,0.06004097516847072,0.0032896336403607056
4.204400440040001,0.06004498213449707,0.003284406368804102
4.20442044204,0.06000775258094547,0.0033032271766754995
4.20444044404,0.06001164818918141,0.0032987376509177775
4.204460446040001,0.06001262859387615,0.003302768903384646
4.20448044804,0.06002409059000433,0.0032657699597557176
4.20450045005,0.06003969696585167,0.003264917941570456
4.204520452050001,0.060043261512686914,0.0032970258455917063
4.204540454050001,0.06000492215914323,0.0032666270617233498
4.20456045605,0.060000909173798675,0.0032629854055114954
4.204580458050001,0.06001233249971237,0.0032828958942010093
4.204600460050001,0.06001722604510967,0.003284193368295489
4.20462046205,0.05997900429244273,0.0032668791167170842
4.204640464050001,0.06001148583977326,0.003282966750204591
4.204660466050001,0.060010594632010285,0.003301244757136442
4.20468046805,0.05998432472697503,0.0032859637726496346
4.204700470050001,0.05999480760241068,0.003287476140241899
4.204720472050001,0.059990622113711214,0.003286212701997162
4.20474047405,0.059990041312841226,0.003253364287824124
4.204760476050001,0.060011701577047674,0.0032879168461361075
4.204780478050001,0.060022990078898414,0.0032763642993439597
4.20480048005,0.0600053781801151,0.003293213453680593
4.204820482050001,0.05999103284271584,0.0032571576161909248
4.204840484050001,0.06001679992942914,0.0032784228124206616
4.20486048605,0.05997755341398357,0.0033033543166838507
4.204880488050001,0.05998409276100134,0.00327618003004183
4.204900490050001,0.05998130977732664,0.0032953549789130447
4.20492049205,0.0599897339126018,0.0032804338903954164
4.204940494050001,0.05996375468737834,0.0032769853324194492
4.204960496050001,0.05996565667140101,0.003300595240176663
4.20498049805,0.05995775764471072,0.003286569214688388
4.205000500050001,0.059970168017746406,0.0032801505333880723
4.205020502050001,0.05998777748604888,0.003282775182270544
4.20504050405,0.059927367368135184,0.00328313636217396
4.205060506050001,0.05998779230240575,0.0032538270160244707
4.205080508050001,0.059953780635859336,0.003286042973974484
4.20510051005,0.05995275086617735,0.0032836148130985787
4.205120512050001,0.059958205820599964,0.003279547591258255
4.205140514050001,0.059962336139911074,0.003269673336950503
4.20516051605,0.059970013281904995,0.003275920686298339
4.205180518050001,0.059980352649355625,0.0032802489723589012
4.205200520050001,0.0599509843221537,0.003272355121641795
4.20522052205,0.05994201258977914,0.0032729026422296595
4.205240524050001,0.059937767174419836,0.0032646084463718826
4.205260526050001,0.05991892149873135,0.003289716537447123
4.20528052805,0.05994306084695579,0.0032879872885503425
4.205300530050001,0.059921965779663175,0.00328734491119783
4.205320532050001,0.05995142344087273,0.003290690476288192
4.20534053405,0.059941408365709256,0.003292408154369854
4.205360536050001,0.059921131344956344,0.003262941887210914
4.205380538050001,0.05990546697085536,0.003292202656449656
4.20540054005,0.059947056608630755,0.0032902431213952463
4.205420542050001,0.05994484653465948,0.0032774021935803484
4.205440544050001,0.05991232158146577,0.0032639933457013666
4.20546054605,0.05990226432820049,0.003270944886875942
4.205480548050001,0.05994428235973029,0.003276407611505605
4.20550055006,0.05989326209062916,0.0032772916912030547
4.20552055206,0.059902504680621985,0.0032896228673954184
4.205540554060001,0.05990906730982592,0.0032769704652390458
4.20556055606,0.059915667324304894,0.003269343339907662
4.20558055806,0.059942570246479074,0.003265145254390294
4.205600560060001,0.05988152419186764,0.0032698199627620994
4.20562056206,0.059900220850354007,0.0032604549224312523
4.20564056406,0.059899280736981725,0.003275339988270374
4.205660566060001,0.05990770165380517,0.0032841185868672726
4.20568056806,0.05993786961607958,0.0032572472808947324
4.20570057006,0.059910313821725014,0.003269508448716027
4.205720572060001,0.05992214578731584,0.003279961162950637
4.20574057406,0.059887625415884195,0.0032831423458419377
4.20576057606,0.05988500756979419,0.003295237376452608
4.205780578060001,0.05988372751149855,0.0032825288863497087
4.20580058006,0.059860955029756205,0.0032531704242855994
4.20582058206,0.059891229594349074,0.003254352888952667
4.205840584060001,0.05988941382204206,0.003281082508910911
4.20586058606,0.05987776107950182,0.003277913061728463
4.20588058806,0.05986436291587313,0.0032701924195611756
4.205900590060001,0.05989225308197686,0.0032937283828559684
4.20592059206,0.05988689907212057,0.0032620199512253846
4.20594059406,0.05988944473500424,0.003269460445927106
4.205960596060001,0.05987451313248741,0.0032590812971136918
4.20598059806,0.05984411028763861,0.0032758640976319683
4.20600060006,0.059878056987870985,0.003277955357907255
4.206020602060001,0.05988646692569096,0.003275319503845079
4.20604060406,0.05988771481965144,0.0032412806779563395
4.20606060606,0.05986220102652022,0.0032804525304266988
4.206080608060001,0.05985865564847653,0.003262282219657218
4.20610061006,0.05986900952941162,0.0032807593769508467
4.20612061206,0.05987541295020092,0.0032822878189368715
4.206140614060001,0.05983612114073597,0.003284627764278448
4.20616061606,0.05987222838288658,0.0032548131985954375
4.20618061806,0.059858049212164754,0.0032758157000720087
4.206200620060001,0.05986370625398131,0.0032718873317552077
4.20622062206,0.059854175563381025,0.003286396112549328
4.20624062406,0.05985497733495983,0.0032668058579274593
4.206260626060001,0.059835966708777964,0.0032939545084652994
4.20628062806,0.05986762105299641,0.003242185867960646
4.20630063006,0.059829126085840706,0.0032757039189560792
4.206320632060001,0.05984520832734269,0.003279205353527277
4.20634063406,0.0598178596704699,0.0032820373751247904
4.20636063606,0.059817914877738756,0.003292215968888748
4.206380638060001,0.059840272728887325,0.00327127602207878
4.20640064006,0.05981948231208144,0.003290223698670113
4.20642064206,0.0598379162978476,0.0032549095227633676
4.206440644060001,0.059837994469363075,0.0032717480119553374
4.20646064606,0.05984825820207475,0.0032759605425875943
4.20648064806,0.059839145598579044,0.0032567055101736346
4.206500650070001,0.05983084104322924,0.0032623653025336194
4.20652065207,0.05980004723563145,0.0032668865341158385
4.20654065407,0.05982050279416144,0.0032603639724079793
4.206560656070001,0.05982834745123967,0.003273233232011185
4.20658065807,0.05983381769317884,0.003287555682961711
4.20660066007,0.059827266424340525,0.0032596115496286906
4.206620662070001,0.05982802210128781,0.003280945625764753
