% MetaData :path,/Users/cwheeler/PycharmProjects/WaferScreen/waferscreen/pro/princeton/8/Band04/2020-10-28/1603929442.63-F_4.60_TO_4.80-BW_100.0-ATTEN_20.0-VOLTS_0.000_s21.csv|atten,20|band,4|datetime,2020-10-28 17:57:22|freq_center_GHz,4.700000000000001|freq_max_GHz,4.800000000000001|freq_min_GHz,4.6000000000000005|freq_span_GHz,0.20000000000000018|freq_step,20002.00020002002|ifband_hz,100.0|location,princeton|plot_path,/Users/cwheeler/PycharmProjects/WaferScreen/waferscreen/pro/princeton/8/Band04/2020-10-28/1603929442.63-F_4.60_TO_4.80-BW_100.0-ATTEN_20.0-VOLTS_0.000_s21.pdf|raw_path,/Users/cwheeler/PycharmProjects/WaferScreen/waferscreen/raw/princeton/SMBK_wafer8/1603929442.63-F_4.60_TO_4.80-BW_100.0-ATTEN_20.0-VOLTS_0.000.CSV|time,1603929442.63|volts,0.0|wafer,8
% Header :freq_ghz,real,imag
4.6000000000000005,0.04986280175329652,-0.0007206227002236193
4.600020002,0.04982902482489956,-0.0007092680290138272
4.600040004,0.04996034690028263,-0.0007507164980085006
4.6000600060000005,0.04985661933434367,-0.0007280665897272595
4.600080008,0.04991514796670069,-0.000837141412241317
4.60010001,0.049868859638234335,-0.0007170862650556376
4.6001200120000005,0.04997912251240507,-0.0007323955724801113
4.600140014,0.049902596710517326,-0.0007498583312591537
4.600160016,0.049943879844005855,-0.0006293018851092061
4.6001800180000005,0.04991190445231852,-0.000807460447940514
4.60020002,0.04991914006387534,-0.0007188241246373238
4.600220022,0.04993279345660847,-0.0007240527345639567
4.6002400240000005,0.04993683978999753,-0.0007370006808550189
4.600260026,0.04993147917902857,-0.0006814339638868076
4.600280028,0.049931974953905875,-0.0007403178250450174
4.6003000300000005,0.04992545452833591,-0.0007620162446484481
4.600320032,0.04988154701216971,-0.000760624922447847
4.600340034,0.04991274080128377,-0.0007380665901075643
4.6003600360000005,0.049918819055846816,-0.0006609490168502583
4.600380038,0.04994244679191989,-0.0006451406109478416
4.60040004,0.049826458735327615,-0.0006903012283230297
4.6004200420000005,0.04986623556873156,-0.0007555804610887614
4.600440044,0.049921814119294056,-0.0007200022229202022
4.600460046,0.04996085936050151,-0.0007036156921577334
4.6004800480000005,0.049908174524769595,-0.0007383175149038284
4.600500050010001,0.04989535031043643,-0.0007250397542342569
4.60052005201,0.0500352654077093,-0.0007139552028420301
4.6005400540100005,0.049955540460065416,-0.0007014212465011986
4.600560056010001,0.050007637089259656,-0.0006362816322497671
4.60058005801,0.0499675097707846,-0.0007341954634228938
4.6006000600100005,0.04994963020112214,-0.0007507862887093167
4.600620062010001,0.049926650780121304,-0.000744013839431212
4.60064006401,0.049946195338833384,-0.0005901027812187012
4.6006600660100005,0.049997618694541945,-0.0007006926692567205
4.600680068010001,0.04996117364915252,-0.0007275891561596762
4.60070007001,0.04989517929118445,-0.0007416882527934588
4.6007200720100005,0.049920037974157803,-0.000674631443250237
4.600740074010001,0.049931546845561,-0.0007517416231180366
4.60076007601,0.04985624650651797,-0.0008135577385665858
4.6007800780100006,0.04992263460844754,-0.0006725115206558281
4.600800080010001,0.04993395699596578,-0.0006673300558285473
4.60082008201,0.04997133385178307,-0.0007446149085750808
4.6008400840100006,0.04998771048489565,-0.000700603878797737
4.600860086010001,0.049960658808676006,-0.0007074666776120779
4.60088008801,0.049919435798311824,-0.0006777187439409166
4.6009000900100006,0.04987420308417808,-0.0007651159004203982
4.600920092010001,0.049985185266735746,-0.0006781400905324052
4.60094009401,0.05000185166256596,-0.0006722054030970127
4.6009600960100006,0.04996704904015191,-0.0007095550182405243
4.600980098010001,0.04989963745758726,-0.0006749478009955533
4.60100010001,0.04992583355881556,-0.0006817110211673715
4.601020102010001,0.04985850502864782,-0.0007339749886366778
4.601040104010001,0.0499991310541434,-0.0006957739294691026
4.60106010601,0.0499203129128271,-0.0006376269182111031
4.601080108010001,0.04998452579042935,-0.0006824118438886161
4.601100110010001,0.04997279165922772,-0.0007513953294060009
4.60112011201,0.05002197132941713,-0.0006850312088247899
4.601140114010001,0.04995182346300792,-0.0007050938267276347
4.601160116010001,0.04999119602652108,-0.0006553190982031346
4.60118011801,0.04991920791506592,-0.0007066525727214799
4.601200120010001,0.050030976701973345,-0.000780420984461485
4.601220122010001,0.049931350426829044,-0.000661528813046517
4.60124012401,0.050031212969419335,-0.0007335852002283115
4.601260126010001,0.049948874926999356,-0.0006449952845023581
4.601280128010001,0.049921635422304565,-0.0006687033609534265
4.60130013001,0.04993132197830504,-0.0006499968599397721
4.601320132010001,0.05000516598278543,-0.0007276473512297446
4.601340134010001,0.04996286944827024,-0.0006448553583592309
4.60136013601,0.049982995157702215,-0.000748615947632543
4.601380138010001,0.04998581386416971,-0.0006693184445278472
4.601400140010001,0.04999983732397184,-0.000667225933019204
4.60142014201,0.04990541381284986,-0.0007287208505201634
4.601440144010001,0.04998649161153571,-0.0006927081138871118
4.601460146010001,0.049899657657779005,-0.000627191044634802
4.60148014801,0.049975861220568046,-0.0006595462481381632
4.601500150020001,0.049933351401863196,-0.0006469626789554657
4.601520152020001,0.05002610392578581,-0.0006872251761016468
4.601540154020001,0.0499986714572458,-0.0007087550683025148
4.601560156020001,0.049967853820975246,-0.0007183488340825675
4.601580158020001,0.05001423386946578,-0.0007178699171239422
4.601600160020001,0.04997122427563596,-0.000610311958082678
4.601620162020001,0.05004811506823225,-0.0007309158125483849
4.601640164020001,0.050007233617448354,-0.0006957211143049438
4.601660166020001,0.04994348262976771,-0.0006432771709451203
4.601680168020001,0.049954456541606615,-0.0007312285929029598
4.601700170020001,0.049962671720858304,-0.0005520942199063114
4.601720172020001,0.04989824428680026,-0.0006576273889045761
4.601740174020001,0.04998028876418026,-0.0007273746820759507
4.601760176020001,0.049950893681016045,-0.000645347793401533
4.601780178020001,0.04999820997883837,-0.0007277026490050617
4.601800180020001,0.050006026197586914,-0.0006827504598764661
4.601820182020001,0.05000709119613489,-0.0006964688230595567
4.601840184020001,0.04995459689500553,-0.0005709942192034419
4.601860186020001,0.04998286517498168,-0.0007028831138785885
4.601880188020001,0.05008301549379425,-0.0007073064630991194
4.601900190020001,0.05000565017502728,-0.0006567233436755963
4.601920192020001,0.04994323558690571,-0.0005819192392500991
4.601940194020001,0.049975325759923236,-0.0007769539876928029
4.601960196020001,0.050010817848505265,-0.0006472069043266561
4.601980198020001,0.04996931299861504,-0.0006690471757219846
4.602000200020001,0.05003891967350381,-0.0007006604643099573
4.602020202020001,0.05001113136289024,-0.0006481510958516352
4.602040204020001,0.04993250119356435,-0.0006410037430714909
4.602060206020001,0.05000196263803018,-0.0007032484102324522
4.602080208020001,0.04997615090026063,-0.000678670542303618
4.602100210020001,0.04997985270361424,-0.000646920534127491
4.602120212020001,0.049979722379182426,-0.0007105543868143015
4.602140214020001,0.05003719644689506,-0.000655391042340088
4.602160216020001,0.05003022876095638,-0.0006362074925563219
4.602180218020001,0.049941328294860435,-0.0006486630442042104
4.602200220020001,0.050030712356476416,-0.0006181224164079832
4.602220222020001,0.049990693956859025,-0.000626992985051731
4.602240224020001,0.049973649966510485,-0.0005984265435844058
4.602260226020001,0.05000596198708451,-0.0006804219344325388
4.602280228020001,0.04999002973402773,-0.0006094406587721854
4.602300230020001,0.050025864169533654,-0.000660014078611864
4.602320232020001,0.0499504782426495,-0.0006536067994587294
4.602340234020001,0.05004029336915875,-0.0007155037392289065
4.602360236020001,0.050022382929498205,-0.0007344254896962076
4.602380238020001,0.04993313584670768,-0.0006290187812736381
4.602400240020001,0.04996961996968517,-0.000724095976169039
4.602420242020001,0.05007704599575907,-0.0006221384384216475
4.602440244020001,0.050034168002503016,-0.0006735534693917342
4.602460246020001,0.049949500076219226,-0.0007435001387540718
4.602480248020001,0.049903222504788625,-0.0007244555364558369
4.60250025003,0.04994598519344267,-0.0006982277767377219
4.60252025203,0.05003530899228879,-0.0006515640332061985
4.60254025403,0.04996230409347048,-0.0006405437212942885
4.60256025603,0.05000827620799188,-0.0006711569829399126
4.60258025803,0.05008062491069138,-0.00067832217094713
4.60260026003,0.04999312788117575,-0.0006284288084014815
4.60262026203,0.049974893957512104,-0.0006404544811658176
4.60264026403,0.05001789594711323,-0.000679240975911842
4.60266026603,0.049968684121717066,-0.0005606398414036845
4.60268026803,0.049998718683093225,-0.0006112245287345809
4.60270027003,0.050016342362209185,-0.0006414041734330439
4.60272027203,0.050043362702671575,-0.0007192582748951834
4.60274027403,0.049976926690764825,-0.0006367316432552284
4.60276027603,0.05003708203667642,-0.0006200650024923461
4.60278027803,0.05000740184017912,-0.0006795021172548051
4.60280028003,0.050123081241658006,-0.0006746242979791053
4.60282028203,0.05006337045001776,-0.0006248663294519986
4.60284028403,0.050010939365964895,-0.0006309702014062682
4.60286028603,0.050069339786779604,-0.0006382296765352485
4.60288028803,0.049978981173165044,-0.0005336217721102141
4.60290029003,0.050011126752995655,-0.0007035358325357989
4.60292029203,0.05011409153590767,-0.0006125139323299514
4.60294029403,0.0500220837992892,-0.0006788055490426041
4.60296029603,0.05005628197793968,-0.000622632885844257
4.60298029803,0.04999463523182993,-0.0006756312080983505
4.60300030003,0.05003470631025392,-0.0006170059642277674
4.60302030203,0.05005677173320716,-0.0006708797602621407
4.60304030403,0.05013407336730681,-0.0006392660574968644
4.60306030603,0.05007812768594108,-0.0005488238719126223
4.60308030803,0.05004338280525621,-0.0006349244211881384
4.60310031003,0.050012938682632964,-0.0006023023162728645
4.60312031203,0.04999781493013296,-0.000614299108541095
4.60314031403,0.04998450908203704,-0.0006063852270688577
4.60316031603,0.049972765127676115,-0.0006860804282778354
4.60318031803,0.05004995476815584,-0.0006400273698253869
4.60320032003,0.05003936364685657,-0.0006381146204340674
4.60322032203,0.05004837097339265,-0.000702190249194358
4.60324032403,0.050030553402280714,-0.0006144232039643326
4.60326032603,0.05007621156582751,-0.0005865908575667291
4.60328032803,0.050054024637737546,-0.0006891987943724899
4.60330033003,0.050027358503750556,-0.0005552696877286316
4.60332033203,0.050000160424433865,-0.0006605850080433889
4.60334033403,0.05003281869434254,-0.0006295424583279193
4.60336033603,0.05001863913339846,-0.0006801009624950016
4.60338033803,0.050045314641332383,-0.0006337872560254684
4.60340034003,0.050008305170959486,-0.0006409222635177653
4.60342034203,0.04997479413861672,-0.0006290075976700133
4.60344034403,0.05002647869355774,-0.0006477362900533263
4.60346034603,0.04999757647653862,-0.0006289949710017919
4.60348034803,0.05006894619209738,-0.0006602011499379848
4.60350035004,0.0500538546624654,-0.000607192467313054
4.60352035204,0.05005171328857946,-0.0006692029857919279
4.603540354040001,0.05010567098220605,-0.0006768158833715607
4.60356035604,0.05006360397497202,-0.0006490881762411162
4.60358035804,0.050015716450788984,-0.0006183439840813012
4.603600360040001,0.0500701753381134,-0.0006810445983231276
4.60362036204,0.05008660762471822,-0.0005659330328426273
4.60364036404,0.05010665573131401,-0.0005401972779025509
4.603660366040001,0.050025741164386565,-0.000637496660691508
4.60368036804,0.05006829197182302,-0.0006007994969488041
4.60370037004,0.050064479647370166,-0.0006554378351543415
4.603720372040001,0.05006805260525971,-0.000643969263187656
4.60374037404,0.05005148513150505,-0.0006208346248808864
4.60376037604,0.05003173494892643,-0.0006130965596118122
4.603780378040001,0.050029642406414714,-0.0006838107786653171
4.60380038004,0.05011731248484486,-0.0006268953844397211
4.60382038204,0.050146670964088244,-0.0006436500656219679
4.603840384040001,0.05011237154896543,-0.0006779023269781548
4.60386038604,0.05009573081898746,-0.0006169257507077737
4.60388038804,0.050064711153904276,-0.0006355380472941041
4.603900390040001,0.05012101137395707,-0.0006116962412377443
4.60392039204,0.05004996330725847,-0.0006618373380972995
4.60394039404,0.05010153295121454,-0.0006858691825465698
4.603960396040001,0.05004891742728536,-0.0006148533687346338
4.60398039804,0.050045576951521,-0.0006119860597135415
4.60400040004,0.050113640294498746,-0.0006504654282125421
4.604020402040001,0.05001326758003813,-0.000638242863455033
4.60404040404,0.05000973115722859,-0.0005830447076568867
4.60406040604,0.05009360817796822,-0.0006780216417393841
4.604080408040001,0.050087971848887414,-0.0005688600361613372
4.60410041004,0.05005296266202496,-0.0006629299445755838
4.60412041204,0.05004603716436718,-0.0006403843242531631
4.604140414040001,0.050041164380772156,-0.0006523132377702612
4.60416041604,0.050090100350407195,-0.0005839956784796782
4.60418041804,0.05006326708627543,-0.0006071444276603263
4.604200420040001,0.05015529459828207,-0.0006592812904402405
4.60422042204,0.050028281812372684,-0.0005744176869397187
4.60424042404,0.05011890282545288,-0.0005775030026272985
4.604260426040001,0.050079304305490055,-0.0005893339293010919
4.60428042804,0.05008438843566256,-0.0006331264825858987
4.60430043004,0.05013659714781734,-0.0006700454238216329
4.604320432040001,0.05012050142715293,-0.0005775482321042765
4.60434043404,0.05008322415917199,-0.0006647069059603754
4.60436043604,0.05013208969132381,-0.0006603880459065286
4.604380438040001,0.05010067101046752,-0.0006144612432318125
4.60440044004,0.05008805035348237,-0.0006397035073748116
4.60442044204,0.05009244799741507,-0.0006325243221026108
4.604440444040001,0.05006045377160436,-0.0006718795258502238
4.60446044604,0.05005964122228733,-0.0007279304149054849
4.60448044804,0.050097180447444635,-0.000699478004973211
4.604500450050001,0.05008017319853364,-0.0006349199489224001
4.60452045205,0.050126483164853824,-0.0006722045764193628
4.60454045405,0.05012970855387036,-0.0006810286877807353
4.604560456050001,0.05008365834174919,-0.0006676832533353836
4.60458045805,0.050077650876840886,-0.0006418380539361859
4.60460046005,0.05006057427240744,-0.0006466802058203254
4.604620462050001,0.05012294169884556,-0.0006223398868167038
4.60464046405,0.050098012847857164,-0.0006841026748021211
4.60466046605,0.0500874111375768,-0.0006488873093859603
4.604680468050001,0.05004766345336567,-0.0005938415220217309
4.60470047005,0.05004490287525344,-0.0006516933426232111
4.60472047205,0.050071991736727016,-0.0006119768791816409
4.604740474050001,0.05008360834504568,-0.0006257044042860815
4.60476047605,0.05006740914571949,-0.0005925170441302783
4.60478047805,0.050118838840014966,-0.0006631849010875577
4.604800480050001,0.05006111814000086,-0.0006641968278501189
4.60482048205,0.05011648766774238,-0.0005895697201935939
4.60484048405,0.05010244897667426,-0.0006107085814771821
4.604860486050001,0.050125312518571226,-0.0006505462407984785
4.60488048805,0.050039877081091325,-0.0005317905855556134
4.60490049005,0.05012292825735759,-0.0006506049256862333
4.604920492050001,0.05005478317744689,-0.0005894616280915643
4.60494049405,0.050140997238750575,-0.0006400039514348772
4.60496049605,0.050113051817968976,-0.0005213514666172359
4.604980498050001,0.05005924389563486,-0.0006575432977130521
4.60500050005,0.05004730698400869,-0.0006240257506827159
4.60502050205,0.0501240037261131,-0.000654674094860197
4.605040504050001,0.05014137737851955,-0.0005593298236839933
4.60506050605,0.050087215154107495,-0.0006544399034668826
4.60508050805,0.0500395145863835,-0.000622604738419661
4.605100510050001,0.050074712238381835,-0.0006544290154006024
4.60512051205,0.05009078463513646,-0.0006809058261650625
4.60514051405,0.05010527359683832,-0.0007021485456858191
4.605160516050001,0.05007907337552504,-0.000575900390690099
4.60518051805,0.050136157673426676,-0.0006452661653715171
4.60520052005,0.050133796129081094,-0.0005317796863839978
4.605220522050001,0.05011998763270142,-0.0006626172641999335
4.60524052405,0.05023245457818902,-0.0005821405889292371
4.60526052605,0.050168107415997476,-0.0006574749947698723
4.605280528050001,0.05013221157794281,-0.0006527547478950464
4.60530053005,0.05008865568187746,-0.0006304002438500857
4.60532053205,0.05014224234493279,-0.0006457346884215336
4.605340534050001,0.05010784457727231,-0.0006527559554167575
4.60536053605,0.050140805715384214,-0.0006593589495441816
4.60538053805,0.05017436604777544,-0.0006489362126335385
4.605400540050001,0.05012009942796217,-0.0006170837649218629
4.60542054205,0.050111123933957835,-0.0005743696081896912
4.60544054405,0.05011170492178403,-0.0005967830557859176
4.605460546050001,0.05013237879173628,-0.0005975004451423613
4.60548054805,0.05016519918118073,-0.0006131481355736643
4.60550055006,0.05011229709382112,-0.0005647641614011691
4.605520552060001,0.05012867381487762,-0.0006033231044086651
4.605540554060001,0.05020054764959018,-0.0007160187125202708
4.60556055606,0.050195135794204336,-0.0006087325953778866
4.605580558060001,0.0501854140592091,-0.0005526855099495208
4.605600560060001,0.0501223456577022,-0.0006471592023505057
4.60562056206,0.05007491972814526,-0.000670122318824462
4.605640564060001,0.05015510645434107,-0.0006867226134108159
4.605660566060001,0.05012047579403771,-0.0006131423019043701
4.60568056806,0.05012055527049493,-0.0006597396037752758
4.605700570060001,0.050123863084411385,-0.0007015976018433477
4.605720572060001,0.050231077369485795,-0.0006992386654593834
4.60574057406,0.05011031842888992,-0.0005564336959018555
4.605760576060001,0.05014799995870197,-0.0005830801177323444
4.605780578060001,0.0501730180719887,-0.000602859918415282
4.60580058006,0.05012038266771245,-0.0006353702266997524
4.605820582060001,0.05014341916369289,-0.0006348178218953116
4.605840584060001,0.05017340018635061,-0.0005775564135779426
4.60586058606,0.050140797069439684,-0.0006288956050052308
4.605880588060001,0.050094664854631724,-0.0006251122566799522
4.605900590060001,0.05022460686290394,-0.0005989895199207326
4.60592059206,0.050109473736565574,-0.0005584172711886361
4.605940594060001,0.0500953711976707,-0.0005955010931539897
4.605960596060001,0.050126779153691445,-0.0007465235898066504
4.60598059806,0.0501835357225526,-0.0006161288486774656
4.606000600060001,0.050087083059700874,-0.0005562541818415409
4.606020602060001,0.050138566565628,-0.0005792518443630788
4.60604060406,0.05010137747129643,-0.0006640462794318923
4.606060606060001,0.050139296697054136,-0.0006283367508096369
4.606080608060001,0.05015074906206725,-0.0007143384941053869
4.60610061006,0.05018762721667196,-0.0005702789524509137
4.606120612060001,0.05012114639604872,-0.0006611636095373886
4.606140614060001,0.050148287996519686,-0.000661271589562102
4.60616061606,0.05013438972315072,-0.0006537669308819792
4.606180618060001,0.05019568774966816,-0.0006576316586736596
4.606200620060001,0.05015016993208703,-0.0005976793848736922
4.60622062206,0.050155055847521265,-0.0007475766031267671
4.606240624060001,0.05013651042314638,-0.0006146639389607543
4.606260626060001,0.050154614523206666,-0.0006205769470928185
4.60628062806,0.05021890170559913,-0.000619324376821228
4.606300630060001,0.05016225063070648,-0.0006347732905437366
4.606320632060001,0.05013835503103509,-0.0006557473177156575
4.60634063406,0.05010168954164651,-0.0006657241129115407
4.606360636060001,0.050227398121940874,-0.0006927656845913642
4.606380638060001,0.05018824210478965,-0.000601989100414143
4.60640064006,0.05013190786831384,-0.000635157149092392
4.606420642060001,0.050170564962111475,-0.0006267204277299737
4.606440644060001,0.0501675273903867,-0.0007246955599880291
4.60646064606,0.05015386755860108,-0.0006414767354834469
4.606480648060001,0.05011220051146945,-0.0006807870340176797
