% MetaData :path,C:\Users\chw3k5\PycharmProjects\WaferScreen\waferscreen\pro\princeton\8\Band04\2020-10-28\1603929442.63-F_4.60_TO_4.80-BW_100.0-ATTEN_20.0-VOLTS_0.000_s21.csv|IF_band_Hz,100|atten,20|band,4|datetime,2020-10-28 18:57:22|freq_center_GHz,4.700000000000001|freq_max_GHz,4.800000000000001|freq_min_GHz,4.6000000000000005|freq_span_GHz,0.20000000000000018|freq_step,20002.00020002002|location,princeton|plot_path,C:\Users\chw3k5\PycharmProjects\WaferScreen\waferscreen\pro\princeton\8\Band04\2020-10-28\1603929442.63-F_4.60_TO_4.80-BW_100.0-ATTEN_20.0-VOLTS_0.000_s21.pdf|raw_path,C:\Users\chw3k5\PycharmProjects\WaferScreen\waferscreen\raw\princeton\SMBK_wafer8\1603929442.63-F_4.60_TO_4.80-BW_100.0-ATTEN_20.0-VOLTS_0.000.CSV|time,1603929442.63|volts,0.0|wafer,8
% Header :freq_ghz,real,imag
4.6000000000000005,0.04986280175329717,-0.0007206227001782697
4.600020002,0.0498290248249002,-0.0007092680289685076
4.600040004,0.049960346900283316,-0.0007507164979630621
4.6000600060000005,0.04985661933434433,-0.0007280665896819147
4.600080008,0.04991514796670145,-0.0008371414121959193
4.60010001,0.049868859638234994,-0.0007170862650102833
4.6001200120000005,0.04997912251240573,-0.0007323955724346564
4.600140014,0.049902596710518,-0.0007498583312137682
4.600160016,0.04994387984400643,-0.0006293018850637823
4.6001800180000005,0.04991190445231925,-0.0008074604478951197
4.60020002,0.049919140063875996,-0.0007188241245919226
4.600220022,0.049932793456609136,-0.0007240527345185434
4.6002400240000005,0.049936839789998196,-0.0007370006808096029
4.600260026,0.04993147917902919,-0.0006814339638413977
4.600280028,0.04993197495390655,-0.000740317824999605
4.6003000300000005,0.0499254545283366,-0.00076201624460304
4.600320032,0.04988154701217039,-0.0007606249224024805
4.600340034,0.049912740801284446,-0.00073806659006217
4.6003600360000005,0.04991881905584741,-0.0006609490168048571
4.600380038,0.049942446791920475,-0.0006451406109024196
4.60040004,0.04982645873532825,-0.0006903012282777135
4.6004200420000005,0.049866235568732244,-0.0007555804610434088
4.600440044,0.04992181411929471,-0.000720002222874801
4.600460046,0.049960859360502145,-0.000703615692112294
4.6004800480000005,0.04990817452477027,-0.0007383175148584394
4.600500050010001,0.049895350310437084,-0.0007250397541888783
4.60052005201,0.050035265407709945,-0.0007139552027965231
4.6005400540100005,0.049955540460066054,-0.0007014212464557645
4.600560056010001,0.05000763708926023,-0.0006362816322042896
4.60058005801,0.04996750977078527,-0.0007341954633774475
4.6006000600100005,0.04994963020112282,-0.000750786288663886
4.600620062010001,0.049926650780121984,-0.0007440138393858022
4.60064006401,0.04994619533883391,-0.0005901027811732722
4.6006600660100005,0.049997618694542584,-0.0007006926692112499
4.600680068010001,0.04996117364915319,-0.0007275891561142351
4.60070007001,0.04989517929118512,-0.0007416882527480802
4.6007200720100005,0.049920037974158414,-0.0006746314432048324
4.600740074010001,0.04993154684556168,-0.000751741623072625
4.60076007601,0.04985624650651871,-0.0008135577385212454
4.6007800780100006,0.04992263460844816,-0.0006725115206104269
4.600800080010001,0.04993395699596638,-0.0006673300557831323
4.60082008201,0.04997133385178375,-0.0007446149085296346
4.6008400840100006,0.04998771048489628,-0.0007006038787522768
4.600860086010001,0.04996065880867665,-0.000707466677566642
4.60088008801,0.04991943579831244,-0.0006777187438955154
4.6009000900100006,0.049874203084178774,-0.0007651159003750421
4.600920092010001,0.049985185266736364,-0.000678140090486945
4.60094009401,0.050001851662566585,-0.0006722054030515352
4.6009600960100006,0.049967049040152554,-0.0007095550181950815
4.600980098010001,0.04989963745758788,-0.0006749478009501694
4.60100010001,0.04992583355881618,-0.0006817110211219668
4.601020102010001,0.04985850502864849,-0.0007339749885913287
4.601040104010001,0.04999913105414403,-0.0006957739294236286
4.60106010601,0.049920312912827676,-0.0006376269181656985
4.601080108010001,0.04998452579042998,-0.0006824118438431594
4.601100110010001,0.0499727916592284,-0.0007513953293605512
4.60112011201,0.050021971329417755,-0.0006850312087792916
4.601140114010001,0.04995182346300857,-0.0007050938266822057
4.601160116010001,0.049991196026521675,-0.0006553190981576675
4.60118011801,0.04991920791506656,-0.0007066525726760788
4.601200120010001,0.05003097670197406,-0.0007804209844159832
4.601220122010001,0.04993135042682964,-0.0006615288130011054
4.60124012401,0.05003121296942,-0.0007335852001828097
4.601260126010001,0.049948874926999946,-0.0006449952844569257
4.601280128010001,0.049921635422305176,-0.0006687033609080184
4.60130013001,0.04993132197830563,-0.000649996859894357
4.601320132010001,0.05000516598278609,-0.0007276473511842602
4.601340134010001,0.04996286944827083,-0.0006448553583137881
4.60136013601,0.04998299515770289,-0.0007486159475870828
4.601380138010001,0.04998581386417032,-0.0006693184444823835
4.601400140010001,0.04999983732397245,-0.0006672259329737265
4.60142014201,0.049905413812850526,-0.0007287208504747726
4.601440144010001,0.04998649161153634,-0.0006927081138416481
4.601460146010001,0.04989965765777957,-0.0006271910445894077
4.60148014801,0.04997586122056865,-0.00065954624809271
4.601500150020001,0.04993335140186379,-0.0006469626789100437
4.601520152020001,0.050026103925786436,-0.000687225176056145
4.601540154020001,0.049998671457246444,-0.0007087550682570373
4.601560156020001,0.04996785382097589,-0.0007183488340371247
4.601580158020001,0.05001423386946644,-0.0007178699170784474
4.601600160020001,0.049971224275636515,-0.0006103119580372282
4.601620162020001,0.050048115068232917,-0.0007309158125028622
4.601640164020001,0.05000723361744899,-0.0006957211142594594
4.601660166020001,0.04994348262976829,-0.0006432771708996983
4.601680168020001,0.04995445654160728,-0.0007312285928575239
4.601700170020001,0.0499626717208588,-0.0005520942198608721
4.601720172020001,0.04989824428680087,-0.0006576273888591923
4.601740174020001,0.04998028876418091,-0.0007273746820304905
4.601760176020001,0.04995089368101663,-0.0006453477933561005
4.601780178020001,0.04999820997883903,-0.0007277026489595911
4.601800180020001,0.05000602619758753,-0.0006827504598309816
4.601820182020001,0.05000709119613553,-0.0006964688230140688
4.601840184020001,0.049954596895006045,-0.0005709942191580025
4.601860186020001,0.04998286517498232,-0.0007028831138331249
4.601880188020001,0.0500830154937949,-0.000707306463053569
4.601900190020001,0.05000565017502788,-0.0006567233436301119
4.601920192020001,0.04994323558690624,-0.0005819192392046736
4.601940194020001,0.049975325759923944,-0.0007769539876473462
4.601960196020001,0.050010817848505855,-0.0006472069042811682
4.601980198020001,0.04996931299861564,-0.0006690471756765383
4.602000200020001,0.05003891967350445,-0.0007006604642644451
4.602020202020001,0.05001113136289083,-0.0006481510958061508
4.602040204020001,0.04993250119356493,-0.0006410037430260827
4.602060206020001,0.05000196263803082,-0.0007032484101869747
4.602080208020001,0.04997615090026125,-0.0006786705422581682
4.602100210020001,0.04997985270361483,-0.0006469205340820343
4.602120212020001,0.049979722379183064,-0.0007105543867688413
4.602140214020001,0.05003719644689565,-0.0006553910422945827
4.602160216020001,0.05003022876095696,-0.0006362074925108201
4.602180218020001,0.04994132829486103,-0.0006486630441587884
4.602200220020001,0.05003071235647698,-0.0006181224163624849
4.602220222020001,0.04999069395685959,-0.0006269929850062639
4.602240224020001,0.04997364996651103,-0.000598426543538956
4.602260226020001,0.05000596198708514,-0.0006804219343870543
4.602280228020001,0.04999002973402828,-0.0006094406587267183
4.602300230020001,0.05002586416953426,-0.0006600140785663691
4.602320232020001,0.04995047824265009,-0.0006536067994133074
4.602340234020001,0.0500402933691594,-0.0007155037391834013
4.602360236020001,0.05002238292949887,-0.0007344254896507162
4.602380238020001,0.04993313584670824,-0.0006290187812282265
4.602400240020001,0.04996961996968584,-0.0007240959761235927
4.602420242020001,0.05007704599575964,-0.0006221384383761075
4.602440244020001,0.05003416800250363,-0.0006735534693462289
4.602460246020001,0.049949500076219906,-0.0007435001387086429
4.602480248020001,0.04990322250478928,-0.0007244555364104427
4.60250025003,0.0499459851934433,-0.0006982277766922999
4.60252025203,0.050035308992289376,-0.0006515640331606898
4.60254025403,0.04996230409347106,-0.0006405437212488457
4.60256025603,0.05000827620799249,-0.0006711569828944247
4.60258025803,0.050080624910692005,-0.0006783221709015831
4.60260026003,0.04999312788117632,-0.0006284288083560075
4.60262026203,0.049974893957512694,-0.0006404544811203644
4.60264026403,0.05001789594711384,-0.0006792409758663541
4.60266026603,0.04996868412171758,-0.0005606398413582417
4.60268026803,0.04999871868309378,-0.0006112245286891069
4.60270027003,0.05001634236220977,-0.000641404173387556
4.60272027203,0.050043362702672234,-0.0007192582748496677
4.60274027403,0.04997692669076541,-0.0006367316432097682
4.60276027603,0.050037082036676984,-0.0006200650024468408
4.60278027803,0.05000740184017974,-0.0006795021172093241
4.60280028003,0.05012308124165847,-0.0006746242979449174
4.60282028203,0.05006337045001833,-0.0006248663294064691
4.60284028403,0.05001093936596547,-0.0006309702013607872
4.60286028603,0.05006933978678019,-0.000638229676489712
4.60288028803,0.04997898117316553,-0.0005336217720647608
4.60290029003,0.05001112675299629,-0.0007035358324903145
4.60292029203,0.05011409153590822,-0.0006125139322843767
4.60294029403,0.05002208379928981,-0.0006788055489971093
4.60296029603,0.050056281977940244,-0.0006226328857987309
4.60298029803,0.04999463523183054,-0.0006756312080528834
4.60300030003,0.05003470631025448,-0.0006170059641822587
4.60302030203,0.05005677173320778,-0.0006708797602166111
4.60304030403,0.050134073367307394,-0.0006392660574512689
4.60306030603,0.05007812768594158,-0.0005488238718670789
4.60308030803,0.05004338280525679,-0.0006349244211426262
4.60310031003,0.050012938682633505,-0.0006023023162273801
4.60312031203,0.04999781493013338,-0.0006142991085069903
4.60314031403,0.049984509082037595,-0.0006063852270233976
4.60316031603,0.04997276512767673,-0.0006860804282323857
4.60318031803,0.050049954768156414,-0.0006400273697798678
4.60320032003,0.050039363646857155,-0.0006381146203885586
4.60322032203,0.05004837097339329,-0.0007021902491488423
4.60324032403,0.050030553402281276,-0.0006144232039188291
4.60326032603,0.05007621156582805,-0.0005865908575211857
4.60328032803,0.05005402463773817,-0.0006891987943269673
4.60330033003,0.05002735850375107,-0.0005552696876831333
4.60332033203,0.05000016042443446,-0.0006605850079979131
4.60334033403,0.05003281869434312,-0.0006295424582824175
4.60336033603,0.05001863913339908,-0.0006801009624495102
4.60338033803,0.05004531464133295,-0.0006337872559799562
4.60340034003,0.05000830517096007,-0.0006409222634722843
4.60342034203,0.049974794138617294,-0.0006290075976245601
4.60344034403,0.05002647869355833,-0.000647736290007828
4.60346034603,0.04999757647653919,-0.0006289949709563213
4.60348034803,0.05006894619209798,-0.0006602011498924483
4.60350035004,0.050053854662465945,-0.0006071924672675279
4.60352035204,0.05005171328858006,-0.0006692029857464053
4.603540354040001,0.05010567098220666,-0.0006768158833259895
4.60356035604,0.0500636039749726,-0.0006490881761955832
4.60358035804,0.050015716450789546,-0.0006183439840358115
4.603600360040001,0.05007017533811401,-0.0006810445982775894
4.60362036204,0.05008660762471873,-0.0005659330327970735
4.60364036404,0.050106655731314495,-0.0005401972778569762
4.603660366040001,0.05002574116438714,-0.0006374966606460097
4.60368036804,0.05006829197182356,-0.0006007994969032659
4.60370037004,0.05006447964737076,-0.0006554378351088068
4.603720372040001,0.050068052605260156,-0.0006439692631535019
4.60374037404,0.05005148513150561,-0.0006208346248353638
4.60376037604,0.050031734948926994,-0.0006130965595663078
4.603780378040001,0.05002964240641534,-0.0006838107786198144
4.60380038004,0.05011731248484544,-0.0006268953843941386
4.60382038204,0.050146670964088834,-0.0006436500655763594
4.603840384040001,0.05011237154896605,-0.0006779023269325784
4.60386038604,0.05009573081898803,-0.000616925750662212
4.60388038804,0.05006471115390485,-0.0006355380472485711
4.603900390040001,0.05012101137395762,-0.0006116962411921601
4.60392039204,0.050049963307259075,-0.0006618373380517795
4.60394039404,0.05010153295121516,-0.0006858691825010021
4.603960396040001,0.05004891742728592,-0.0006148533686891147
4.60398039804,0.05004557695152155,-0.0006119860596680267
4.60400040004,0.050113640294499336,-0.0006504654281669639
4.604020402040001,0.05001326758003871,-0.0006382428634095455
4.60404040404,0.050009731157228995,-0.0005830447076227738
4.60406040604,0.05009360817796883,-0.0006780216416938242
4.604080408040001,0.050087971848887934,-0.000568860036115782
4.60410041004,0.05005296266202556,-0.000662929944530061
4.60412041204,0.050046037164367764,-0.0006403843242076464
4.604140414040001,0.05004116438077275,-0.0006523132377247491
4.60416041604,0.05009010035040772,-0.0005839956784341215
4.60418041804,0.05006326708627599,-0.0006071444276147939
4.604200420040001,0.050155294598282524,-0.0006592812904060285
4.60422042204,0.05002828181237321,-0.0005744176868942182
4.60424042404,0.05011890282545341,-0.0005775030025817156
4.604260426040001,0.05007930430549058,-0.000589333929255545
4.60428042804,0.05008438843566314,-0.0006331264825403468
4.60430043004,0.05013659714781794,-0.0006700454237760331
4.604320432040001,0.050120501427153456,-0.0005775482320586919
4.60434043404,0.050083224159172594,-0.0006647069059148242
4.60436043604,0.050132089691324405,-0.0006603880458609331
4.604380438040001,0.050100671010468084,-0.000614461243186246
4.60440044004,0.05008805035348295,-0.0006397035073292569
4.60442044204,0.05009244799741565,-0.0006325243220570527
4.604440444040001,0.05006045377160497,-0.0006718795258046951
4.60446044604,0.050059641222287996,-0.0007279304148599579
4.60448044804,0.05009718044744528,-0.0006994780049276493
4.604500450050001,0.05008017319853422,-0.0006349199488768532
4.60452045205,0.05012648316485443,-0.0006722045763737734
4.60454045405,0.050129708553870986,-0.0006810286877351416
4.604560456050001,0.0500836583417498,-0.0006676832532898332
4.60458045805,0.05007765087684146,-0.000641838053890639
4.60460046005,0.05006057427240803,-0.0006466802057747958
4.604620462050001,0.05012294169884613,-0.0006223398867711187
4.60464046405,0.05009801284785779,-0.0006841026747565569
4.60466046605,0.05008741113757739,-0.0006488873093404048
4.604680468050001,0.05004766345336621,-0.0005938415219762135
4.60470047005,0.05004490287525403,-0.0006516933425776954
4.60472047205,0.05007199173672757,-0.0006119768791360992
4.604740474050001,0.05008360834504625,-0.0006257044042405294
4.60476047605,0.05006740914572003,-0.0005925170440847401
4.60478047805,0.05011883884001557,-0.0006631849010419761
4.604800480050001,0.05006111814000146,-0.0006641968278045893
4.60482048205,0.05011648766774292,-0.0005895697201480123
4.60484048405,0.05010244897667481,-0.0006107085814316127
4.604860486050001,0.050125312518571816,-0.0006505462407528882
4.60488048805,0.05003987708109181,-0.0005317905855101029
4.60490049005,0.05012292825735818,-0.0006506049256406465
4.604920492050001,0.05005478317744742,-0.00058946162804604
4.60494049405,0.05014099723875116,-0.0006400039513892748
4.60496049605,0.05011305181796945,-0.0005213514665716578
4.604980498050001,0.05005924389563546,-0.0006575432976675226
4.60500050005,0.050047306984009256,-0.0006240257506371985
4.60502050205,0.05012400372611369,-0.0006546740948146085
4.605040504050001,0.05014137737852006,-0.0005593298236383892
4.60506050605,0.050087215154108085,-0.0006544399034213288
4.60508050805,0.05003951458638407,-0.0006226047383741506
4.605100510050001,0.050074712238382425,-0.000654429015355059
4.60512051205,0.05009078463513708,-0.0006809058261195034
4.60514051405,0.05010527359683896,-0.0007021485456402479
4.605160516050001,0.05007907337552557,-0.0005759003906445521
4.60518051805,0.05013615767342726,-0.0006452661653259216
4.60520052005,0.05013379612908158,-0.0005317796863383989
4.605220522050001,0.05011998763270202,-0.0006626172641543485
4.60524052405,0.050232454578189555,-0.0005821405888835549
4.60526052605,0.05016810741599807,-0.0006574749947242456
4.605280528050001,0.0501322115779434,-0.000652754747849451
4.60530053005,0.05008865568187803,-0.0006304002438045318
4.60532053205,0.05014224234493338,-0.0006457346883759311
4.605340534050001,0.05010784457727291,-0.0006527559553711829
4.60536053605,0.05014080571538481,-0.0006593589494985792
4.60538053805,0.05017436604777603,-0.0006489362125879049
4.605400540050001,0.05012009942796273,-0.0006170837648762743
4.60542054205,0.05011112393395836,-0.00057436960814412
4.60544054405,0.050111704921784433,-0.0005967830557517331
4.605460546050001,0.05013237879173683,-0.0005975004450967693
4.60548054805,0.05016519918118129,-0.0006131481355280445
4.60550055006,0.05011229709382163,-0.0005647641613555944
4.605520552060001,0.05012867381487818,-0.0006033231043630731
4.605540554060001,0.050200547649590664,-0.0007160187124860308
4.60556055606,0.050195135794204884,-0.0006087325953322356
4.605580558060001,0.0501854140592096,-0.0005526855099038733
4.605600560060001,0.050122345657702794,-0.0006471592023049207
4.60562056206,0.05007491972814587,-0.0006701223187789221
4.605640564060001,0.05015510645434169,-0.0006867226133651996
4.605660566060001,0.05012047579403827,-0.000613142301858785
4.60568056806,0.050120555270495526,-0.0006597396037296907
4.605700570060001,0.050123863084412024,-0.0007015976017977592
4.605720572060001,0.050231077369486433,-0.0006992386654137046
4.60574057406,0.050110318428890424,-0.0005564336958562809
4.605760576060001,0.0501479999587025,-0.0005830801176867385
4.605780578060001,0.05017301807198925,-0.0006028599183696519
4.60580058006,0.050120382667713036,-0.0006353702266541673
4.605820582060001,0.05014341916369347,-0.0006348178218497091
4.605840584060001,0.050173400186351136,-0.0005775564135323125
4.60586058606,0.05014079706944026,-0.0006288956049596353
4.605880588060001,0.05009466485463229,-0.0006251122566343914
4.605900590060001,0.05022460686290449,-0.0005989895198750539
4.60592059206,0.050109473736566074,-0.0005584172711430649
4.605940594060001,0.050095371197671226,-0.0005955010931084255
4.605960596060001,0.050126779153692125,-0.0007465235897610618
4.60598059806,0.05018353572255317,-0.000616128848631825
4.606000600060001,0.05008708305970139,-0.0005562541817959801
4.606020602060001,0.050138566565628526,-0.0005792518443174834
4.60604060406,0.05010137747129703,-0.0006640462793863246
4.606060606060001,0.05013929669705472,-0.0006283367507640379
4.606080608060001,0.05015074906206791,-0.0007143384940597741
4.60610061006,0.05018762721667248,-0.0005702789524052732
4.606120612060001,0.050121146396049324,-0.0006611636094918036
4.606140614060001,0.05014828799652028,-0.0006612715895164926
4.60616061606,0.05013438972315132,-0.0006537669308363837
4.606180618060001,0.05019568774966876,-0.0006576316586280086
4.606200620060001,0.05015016993208743,-0.0005976793848394869
4.60622062206,0.050155055847521945,-0.0007475766030811473
4.606240624060001,0.05013651042314694,-0.0006146639389151588
4.606260626060001,0.05015461452320723,-0.0006205769470472057
4.60628062806,0.0502189017055997,-0.0006193243767755527
4.606300630060001,0.05016225063070706,-0.0006347732904981168
4.606320632060001,0.05013835503103569,-0.0006557473176700586
4.60634063406,0.05010168954164711,-0.0006657241128659799
4.606360636060001,0.05022739812194135,-0.0006927656845571034
4.606380638060001,0.05018824210479019,-0.0006019891003684955
4.60640064006,0.05013190786831442,-0.000635157149046793
4.606420642060001,0.050170564962112044,-0.000626720427684347
4.606440644060001,0.05016752739038736,-0.0007246955599423989
4.60646064606,0.050153867558601656,-0.0006414767354378306
4.606480648060001,0.05011220051147008,-0.0006807870339721016
