% MetaData :path,/Users/cwheeler/PycharmProjects/WaferScreen/waferscreen/pro/princeton/8/Band03/2020-10-28/1603928373.66-F_4.00_TO_5.00-BW_1000.0-ATTEN_20.0-VOLTS_0.000_s21.csv|atten,20.0|band,3|datetime,2020-10-28 17:39:33|freq_center_GHz,4.5|freq_max_GHz,5.0|freq_min_GHz,4.0|freq_span_GHz,1.0|freq_step,100010.00100010002|ifband_hz,1000.0|location,princeton|plot_path,/Users/cwheeler/PycharmProjects/WaferScreen/waferscreen/pro/princeton/8/Band03/2020-10-28/1603928373.66-F_4.00_TO_5.00-BW_1000.0-ATTEN_20.0-VOLTS_0.000_s21.pdf|raw_path,/Users/cwheeler/PycharmProjects/WaferScreen/waferscreen/raw/princeton/SMBK_wafer8/1603928373.66-F_4.00_TO_5.00-BW_1000.0-ATTEN_20.0-VOLTS_0.000.CSV|time,1603928373.66|volts,0.0|wafer,8
% Header :freq_ghz,real,imag
4.0,0.07863450280662793,0.007993734332997573
4.000100010000001,0.07854094055476092,0.007965330654067532
4.00020002,0.07859153260471781,0.007954398976862492
4.00030003,0.07872270163069127,0.007939718593109251
4.000400040000001,0.07861091017357782,0.00790292564011457
4.00050005001,0.07874917375125562,0.007927346539955
4.000600060010001,0.07868558829480837,0.00797319122204529
4.000700070010001,0.0786187623093346,0.007991645674232634
4.00080008001,0.07870103714136696,0.007911922777802338
4.000900090010001,0.07867138929108752,0.007973504882035035
4.001000100010001,0.07868843073934129,0.007919709865260194
4.00110011001,0.07870776431338361,0.007860199349989064
4.001200120010001,0.07877352201393913,0.007943922664259508
4.001300130010001,0.07872834878532575,0.007866533330298256
4.00140014001,0.07874490213187804,0.007821187762183282
4.00150015002,0.07879767442534996,0.007942442302149688
4.001600160020001,0.07869235533752818,0.00797787150353508
4.00170017002,0.07880893852094345,0.007982526279847552
4.00180018002,0.07881549365257734,0.00788995373101397
4.001900190020001,0.07865739151144185,0.007832743328275917
4.00200020002,0.07869745360096542,0.00787938382163592
4.00210021002,0.07884150695453439,0.007875897032295093
4.002200220020001,0.07881652641706224,0.007835536560687882
4.00230023002,0.07886107110702084,0.007881964027129557
4.00240024002,0.0788368539238069,0.007800337853876384
4.002500250030001,0.0788208659378238,0.007769713343865035
4.00260026003,0.07882995398088694,0.00789016579226617
4.00270027003,0.07887315225585975,0.007814274213060125
4.002800280030001,0.07871588449454602,0.007850492661818583
4.00290029003,0.07881767922197404,0.007893197449099778
4.00300030003,0.07891720524039852,0.007817019459099456
4.003100310030001,0.07889841842153344,0.007784342918505689
4.00320032003,0.07892155392920108,0.0077776450003158425
4.00330033003,0.07895237904909352,0.007818280598725373
4.003400340030001,0.07892245917685826,0.0076921886028432605
4.00350035004,0.07889496913306167,0.007801508330342906
4.00360036004,0.0789537914902005,0.00774370513218738
4.00370037004,0.07890839095171799,0.007801124165110504
4.00380038004,0.07889917165756814,0.007788996933468809
4.00390039004,0.07904008608629937,0.007708415050303721
4.00400040004,0.07902792892539942,0.007680886829412519
4.00410041004,0.07902279503382241,0.00766712661788875
4.00420042004,0.07903502371102508,0.00773305685266203
4.00430043004,0.07901075085419934,0.007699901215009217
4.00440044004,0.0790366127795496,0.00763036541491828
4.00450045005,0.07906321096767918,0.007684328081503888
4.004600460050001,0.07915206045524135,0.007571150595130045
4.00470047005,0.07903122856021344,0.007586840376249519
4.00480048005,0.07906299411693113,0.007587121971804202
4.004900490050001,0.07902076735323962,0.00757237530647048
4.00500050005,0.07906183768136782,0.007551020406147808
4.00510051005,0.07906469685292429,0.007605970958706167
4.005200520050001,0.07910889622875956,0.007525201885857341
4.00530053005,0.07899706640545995,0.007464158392310349
4.00540054005,0.07901624320603601,0.007604030212221911
4.00550055006,0.07902682409770329,0.00753821428647098
4.00560056006,0.07915507768629004,0.007487734621017955
4.00570057006,0.07915970027358177,0.007541501063138924
4.00580058006,0.07911564387194653,0.0075150243766858235
4.00590059006,0.0791573154725451,0.0074268968151815565
4.00600060006,0.07916492112046217,0.0073837192664460635
4.00610061006,0.0791240727363626,0.007465749057980128
4.00620062006,0.079185782221711,0.007354374839828912
4.00630063006,0.07911722182132491,0.007369310372451976
4.00640064006,0.0792362501590791,0.007406696472397771
4.0065006500700004,0.07922797042252154,0.007342640217234454
4.00660066007,0.07934249669635612,0.00736390476825359
4.006700670070001,0.07922158259429181,0.00727497723686598
4.0068006800700005,0.07920642123932187,0.00733651811872741
4.00690069007,0.0792556414975702,0.0072955716126649715
4.007000700070001,0.079294102709301,0.007268795709705948
4.0071007100700005,0.07923758815630501,0.007236137322649503
4.00720072007,0.07930021860347662,0.0072416078152723155
4.007300730070001,0.07932419238871133,0.00729474892613631
4.0074007400700005,0.07941764547621548,0.0072352203948131905
4.00750075008,0.07933743294727962,0.0071329709005649895
4.00760076008,0.0793495684602592,0.007148966707530462
4.0077007700800005,0.07938781191621107,0.007152510664242787
4.00780078008,0.07932282375661985,0.007048595103596374
4.00790079008,0.07933196072756682,0.007185214166219289
4.0080008000800005,0.07932040325668763,0.007116669995859384
4.00810081008,0.0793893793233939,0.00706486086255138
4.00820082008,0.07931499459160968,0.007060104163643095
4.0083008300800005,0.0793689025668605,0.007049867049063326
4.00840084008,0.07937614620536952,0.007054841040563127
4.008500850090001,0.07950209813294318,0.006951732686339009
4.0086008600900005,0.07930495878315535,0.006993492095715773
4.00870087009,0.07939078076212552,0.00698678954002022
4.008800880090001,0.07938041533949054,0.006899984030441161
4.0089008900900005,0.07939648084645948,0.006923118172967726
4.00900090009,0.07942765963937777,0.006825865463101002
4.009100910090001,0.07947282357604588,0.006891440185810727
4.0092009200900005,0.07941672082282164,0.006869416382770915
4.00930093009,0.07945533859370944,0.0067577547616492414
4.009400940090001,0.07942487742777173,0.006741427072771193
4.0095009501000005,0.07941769846546547,0.006819704106431047
4.0096009601,0.07944606524991601,0.006749211521091772
4.0097009701,0.07942521414284442,0.00676928495192726
4.0098009801000005,0.07956509978755173,0.00665073328451863
4.0099009901,0.07955466127076122,0.006613966463162237
4.0100010001,0.07948500173880928,0.006682540108341489
4.0101010101000005,0.07950215875561017,0.006676381752420399
4.0102010201,0.07954733023909016,0.00664172036320005
4.0103010301,0.07947868190446528,0.006546205487604838
4.0104010401000005,0.07946949811368868,0.006543400873171026
4.01050105011,0.07948201127895681,0.006539724376208936
4.01060106011,0.07954340259862876,0.006532710274463394
4.0107010701100005,0.07956713716631632,0.006467672242474541
4.01080108011,0.07958486584684281,0.006520980336958953
4.01090109011,0.07955718927594958,0.006384013911314247
4.0110011001100006,0.07954667988384174,0.006389035725463371
4.01110111011,0.07961483941353605,0.006475207577651711
4.01120112011,0.07952684158556309,0.006344443500580842
4.011301130110001,0.07957756876830462,0.006345401903993051
4.01140114011,0.07955118413000492,0.006333714712065957
4.01150115012,0.079583145879641,0.006261478220088174
4.011601160120001,0.07963573316749928,0.006209167681444553
4.01170117012,0.07962400874259822,0.0062226092100149625
4.01180118012,0.07954594603234667,0.00620502156839238
4.011901190120001,0.07952287392992974,0.006214623466044743
4.01200120012,0.07955506921265942,0.006123254396825131
4.01210121012,0.07947136282126643,0.006071338704107188
4.012201220120001,0.07947412171662749,0.006061259132711321
4.01230123012,0.07960109760182535,0.006091100472808921
4.01240124012,0.07960967853948371,0.005933337078026359
4.012501250130001,0.07961932611189289,0.005987711457862735
4.01260126013,0.07958948114475349,0.00597856628480683
4.01270127013,0.0796004035712717,0.005968408877828922
4.012801280130001,0.0795418487864056,0.005962378954943226
4.01290129013,0.07955839160723022,0.005865784879620674
4.01300130013,0.07952235555432402,0.005857832272842048
4.013101310130001,0.07954435825770814,0.005904920006336932
4.01320132013,0.07954270952587664,0.005798687210369496
4.01330133013,0.07955593937928916,0.005784510885141807
4.013401340130001,0.07955761115040015,0.005748956866724986
4.01350135014,0.07952405236879233,0.005693983272628378
4.01360136014,0.07949729359133367,0.005721993345481631
4.01370137014,0.07952080952989142,0.00565696636029004
4.01380138014,0.0794788060354023,0.0057109257066862915
4.01390139014,0.07947511226632867,0.005638851653192653
4.01400140014,0.07949992177732357,0.005570986890042026
4.01410141014,0.07956386695094361,0.005561751835470724
4.01420142014,0.07955707314540703,0.005622371054831508
4.01430143014,0.07957526686048708,0.005492880872876124
4.01440144014,0.07955117111363644,0.005421787813454246
4.01450145015,0.07947633383185655,0.005448826191254912
4.014601460150001,0.07949896383771522,0.0054136786798339165
4.01470147015,0.07948799986831895,0.00543505677786825
4.01480148015,0.0794597785485548,0.005455502634624437
4.014901490150001,0.07943293165851223,0.005391222638798265
4.01500150015,0.07941399658449085,0.005287932126766155
4.01510151015,0.07944149870240831,0.005280245559772925
4.015201520150001,0.07940651243283357,0.005295255209091649
4.01530153015,0.07943233119363047,0.005248252749454462
4.01540154015,0.07948750347287771,0.0052344148928819105
4.01550155016,0.07929405145235079,0.005119558170109763
4.01560156016,0.07935020630639321,0.0051115107848651205
4.01570157016,0.0794023234708343,0.005202455933875836
4.01580158016,0.07934149035052405,0.005181741248287781
4.01590159016,0.07934723682500086,0.005081028198139844
4.01600160016,0.07934490906009653,0.005109592627154592
4.01610161016,0.07943560951216422,0.005079091812817116
4.01620162016,0.07939674021635726,0.00511600583675278
4.01630163016,0.07939106978278701,0.004972580937082514
4.01640164016,0.07936014595214749,0.004983447299403334
4.01650165017,0.07926788310685089,0.00498528609228142
4.01660166017,0.07927327468805577,0.004904693506911344
4.016701670170001,0.07935603407561483,0.0049055544042783585
4.01680168017,0.07928260806974588,0.004889260462678657
4.01690169017,0.07930738152334021,0.004870079286611553
4.017001700170001,0.07930097232271248,0.004774550051692724
4.01710171017,0.0793020698816866,0.004764615497306099
4.01720172017,0.07928790367711445,0.004793135061605683
4.017301730170001,0.07923541348262501,0.004774652810120714
4.01740174017,0.0792204133870188,0.004697347548791159
4.01750175018,0.07912598927807796,0.004713812489633602
4.01760176018,0.07922326031092804,0.004725316345951726
4.01770177018,0.07922860229513817,0.004663402322289612
4.01780178018,0.07925357940057594,0.004621259027048054
4.01790179018,0.07915296802107259,0.00459878576495297
4.01800180018,0.07914755376764966,0.004577232456642585
4.01810181018,0.07904041656930755,0.004529590936933191
4.01820182018,0.07908623937306562,0.004483755818775005
4.01830183018,0.07910079300186601,0.004519867307004606
4.01840184018,0.07909611795219623,0.004458222201541115
4.018501850190001,0.07917563737413826,0.004504427529758624
4.01860186019,0.07911495162640036,0.004484811559054835
4.01870187019,0.07905981378184276,0.004340177845289422
4.018801880190001,0.07905114861424631,0.004429673356328448
4.01890189019,0.07898283185124938,0.0043446429802533396
4.01900190019,0.07907418204338025,0.004414813021192683
4.019101910190001,0.07892098838842436,0.004329087959931269
4.01920192019,0.07895828125751371,0.004346258078919411
4.01930193019,0.0789199550026163,0.004326128156724132
4.019401940190001,0.07898501060967833,0.00422373157713141
4.0195019502000005,0.07900470668083155,0.004201113849714857
4.0196019602,0.07897695761170508,0.004199852538901417
4.0197019702,0.0789593176497517,0.004138029859776127
4.0198019802000005,0.07889879541786347,0.004081860846170987
4.0199019902,0.07885555378355977,0.004126303478913164
4.0200020002,0.07882815758069739,0.004200704442372305
4.0201020102000005,0.07884437191781145,0.004110076853341218
4.0202020202,0.07891122758604908,0.004156546121575339
4.0203020302,0.07886479657400469,0.004091002447498779
4.0204020402000005,0.07887206180789619,0.004057837327862438
4.02050205021,0.07879246549756434,0.0040299448129389
4.02060206021,0.07877100142632792,0.004065811324537618
4.0207020702100005,0.07876960095750524,0.0040157590774454995
4.02080208021,0.07872039484146774,0.003996414540545785
4.02090209021,0.07866503588322889,0.003900854810384065
4.0210021002100005,0.07865383305866928,0.003925158190229199
4.02110211021,0.07871635456314852,0.003934555591156222
4.02120212021,0.07871210867842351,0.003855563455650343
4.0213021302100005,0.07864316822664964,0.0038529187838527348
4.02140214021,0.07871727624932182,0.0037501554952712075
4.02150215022,0.0786392877715743,0.003805455486781871
4.02160216022,0.07863411549788983,0.0037648232677070168
4.02170217022,0.07857571032782767,0.0037922240664664923
4.02180218022,0.07861504221807769,0.003759160285093509
4.02190219022,0.07858122285086029,0.003785683859001153
4.02200220022,0.07865031845154728,0.0036961199878115317
4.02210221022,0.07860783524414744,0.0037390572359599847
4.02220222022,0.07852282808478406,0.0037669338998582436
4.02230223022,0.0786463233807608,0.00366211100594388
4.02240224022,0.07851756558482866,0.0036506576431467666
4.0225022502300005,0.07847316381860245,0.003639753332700141
4.02260226023,0.07840843544374633,0.003683392127042738
4.02270227023,0.07855775981697116,0.003622338415634009
4.0228022802300005,0.07846522442835907,0.0036370233265928392
4.02290229023,0.07843901690589619,0.003482833014798452
4.02300230023,0.07843839406576039,0.003564547754646742
4.0231023102300005,0.07840759250410823,0.0034509656850231357
4.02320232023,0.07840455740460635,0.003573983754848818
4.02330233023,0.07833679822010217,0.0035203863503470018
4.0234023402300005,0.07839788383615466,0.0034891921385898847
4.02350235024,0.07834154015503811,0.003464165238323054
4.02360236024,0.07843166301334686,0.0034250842534138334
4.02370237024,0.07829546008672546,0.0033760642428730878
4.02380238024,0.07837679160079344,0.003412804290784409
4.02390239024,0.07826253518166809,0.003453799849443332
4.02400240024,0.07827269288881489,0.0033781743334249867
4.02410241024,0.07819252854772626,0.0033379496048133485
4.02420242024,0.07822704644382641,0.0033435292360393803
4.02430243024,0.07817767541030819,0.003363877069570094
4.02440244024,0.07815699405134233,0.0032816045227606373
4.02450245025,0.07828354960086589,0.003279890798557932
4.024602460250001,0.07810807498317486,0.003273197542635664
4.02470247025,0.07824020856655872,0.003251900319262589
4.02480248025,0.07813186037065706,0.003247299602797583
4.024902490250001,0.07814530233215534,0.003229574060022986
4.02500250025,0.07811755994167044,0.003248971723206295
4.02510251025,0.07807404121884605,0.0031856803167289852
4.025202520250001,0.07815582946451285,0.00319800186017853
4.02530253025,0.07804202735721819,0.00317197318532198
4.02540254025,0.07807621405295011,0.003161538343343603
4.025502550260001,0.07805310818551298,0.003149271192573395
4.02560256026,0.07806265263266175,0.00310000940206614
4.025702570260001,0.0780319129969631,0.0030952220776450535
4.025802580260001,0.07797417355284322,0.0030294856393720156
4.02590259026,0.07791923716630388,0.003113542825395249
4.026002600260001,0.07788003709924893,0.0030688328867471484
4.026102610260001,0.07797015837001418,0.0030432626899726777
4.02620262026,0.07789040719429507,0.003030612799845643
4.026302630260001,0.07793688233456142,0.0030288951286800356
4.026402640260001,0.07793291387499829,0.002996612464715935
4.02650265027,0.07789801547671998,0.002985263125880405
4.02660266027,0.07777453802949773,0.002934087109188077
4.026702670270001,0.07781060457994832,0.0030167056746117915
4.02680268027,0.0778541904708338,0.002973375613268804
4.02690269027,0.07780389998841741,0.0028864892949976087
4.027002700270001,0.07786117269104964,0.0028186669437623504
4.02710271027,0.07776887336733157,0.002863537974314427
4.02720272027,0.07769899041833597,0.0028765779487669244
4.027302730270001,0.07776901488573768,0.0028403732991401157
4.02740274027,0.07777631093857201,0.0028288359833189766
4.02750275028,0.07774375383287911,0.0028696802689873943
4.027602760280001,0.07769175628873622,0.0028694191945160957
4.02770277028,0.07774687741076142,0.0028687977142209733
4.02780278028,0.07772051334992511,0.0027125041051907772
4.027902790280001,0.07767218136430022,0.0027516104829455046
4.02800280028,0.07760882504212205,0.002726445036490145
4.02810281028,0.07765287333195789,0.0027231123623298256
4.028202820280001,0.07764031498425636,0.002658402640834036
4.02830283028,0.07759919429642863,0.002746526305231544
4.02840284028,0.07757578078863438,0.0026340316592082663
4.02850285029,0.07753030091343627,0.002632709183034855
4.02860286029,0.07756227678151977,0.002693430237253939
4.02870287029,0.07752645261366735,0.002653364552170044
4.02880288029,0.07754726848749298,0.002591784623148149
4.02890289029,0.07745780541616477,0.002628834404623104
4.02900290029,0.07751123712503433,0.002621709387085055
4.02910291029,0.07758318811682877,0.002537096459237707
4.02920292029,0.07737121248483292,0.002554885450008211
4.02930293029,0.07745928804754164,0.00248877224008132
4.02940294029,0.07743473651419759,0.002531596622756987
4.0295029503,0.07749800624537229,0.0024992868468035213
4.0296029603,0.07738054375734224,0.0024758291161808693
4.029702970300001,0.07738411241002213,0.002404883073678683
4.0298029803,0.07736803784536764,0.002437949200082841
4.0299029903,0.07734082190377804,0.0023912335323153146
4.030003000300001,0.07724402993676628,0.0024131097737989503
4.0301030103,0.0773065773686002,0.0023197217579925475
4.0302030203,0.0772796010733699,0.002340176523407716
4.030303030300001,0.07722146037548533,0.002352704317523338
4.0304030403,0.07716961793498596,0.0022891066303911724
4.03050305031,0.07719408685437859,0.0023392390496463564
4.03060306031,0.07726829846058347,0.0022580775686905016
4.03070307031,0.07718492374273725,0.0021831485980793007
4.03080308031,0.07717118375030427,0.0022556028281468105
4.03090309031,0.07710082950158477,0.00225761067125161
4.03100310031,0.07720442131810473,0.002139717490804001
4.03110311031,0.07706921323443537,0.0022200231556608677
4.03120312031,0.07710912635617372,0.002156858380657156
4.03130313031,0.07704938357210842,0.0021680407957006542
4.03140314031,0.07712657011670965,0.0021298295886200275
4.031503150320001,0.07705981874925122,0.0021433232507886354
4.03160316032,0.07702418994040623,0.0021272779738267175
4.03170317032,0.07702348391891964,0.002088035820912798
4.031803180320001,0.07701417068061192,0.0019784857103781334
4.03190319032,0.07691015730449641,0.002046214143820446
4.03200320032,0.07699561472650868,0.002038415473945704
4.032103210320001,0.076913270853943,0.0019889489149926623
4.0322032203200004,0.07694786891890021,0.0019902709183922188
4.03230323032,0.0769637931802763,0.0019714395516559624
4.032403240320001,0.07686807636435883,0.0019272655822498742
4.0325032503300005,0.07676743601176425,0.0018982195528177287
4.03260326033,0.0767331448995096,0.0019356736740364922
4.03270327033,0.07681459519015016,0.0019020883593845982
4.0328032803300005,0.07678174331123777,0.0019064113973753724
4.03290329033,0.07676522416971537,0.0018674432487051813
4.03300330033,0.07680377552888477,0.0018418947171861925
4.0331033103300005,0.07677223454078212,0.001794116800195273
4.03320332033,0.07676089209305902,0.0017862395242701154
4.03330333033,0.0767039331145509,0.001894349200192172
4.0334033403300005,0.07662093171933572,0.001832036461376826
4.03350335034,0.07667341655579796,0.0018393453343146758
4.033603360340001,0.0766408441042386,0.0017986441607915878
4.0337033703400005,0.07655479134358065,0.0017084459093538327
4.03380338034,0.07656098037390846,0.001768547529015303
4.033903390340001,0.07649955139895367,0.0017249111093157188
4.0340034003400005,0.07654777373477077,0.0016895224056691699
4.03410341034,0.07651148595344479,0.001658216162777634
