% MetaData :path,C:\Users\chw3k5\PycharmProjects\WaferScreen\waferscreen\pro\princeton\8\Band03\2020-10-28\1603929175.28-F_4.40_TO_4.60-BW_100.0-ATTEN_20.0-VOLTS_0.000_s21.csv|IF_band_Hz,100|atten,20|band,3|datetime,2020-10-28 18:52:55|freq_center_GHz,4.5|freq_max_GHz,4.6000000000000005|freq_min_GHz,4.4|freq_span_GHz,0.20000000000000018|freq_step,20002.00020002002|location,princeton|plot_path,C:\Users\chw3k5\PycharmProjects\WaferScreen\waferscreen\pro\princeton\8\Band03\2020-10-28\1603929175.28-F_4.40_TO_4.60-BW_100.0-ATTEN_20.0-VOLTS_0.000_s21.pdf|raw_path,C:\Users\chw3k5\PycharmProjects\WaferScreen\waferscreen\raw\princeton\SMBK_wafer8\1603929175.28-F_4.40_TO_4.60-BW_100.0-ATTEN_20.0-VOLTS_0.000.CSV|time,1603929175.28|volts,0.0|wafer,8
% Header :freq_ghz,real,imag
4.4,0.046835110080367906,-0.007035427451809235
4.400020002000001,0.04676182698265555,-0.007442782422504996
4.400040004,0.04649686274694129,-0.008043001779741678
4.400060006,0.046247082403153894,-0.008608913136190156
4.400080008000001,0.0459229624800198,-0.009277256078133775
4.40010001,0.04550850423240047,-0.010142788708931767
4.400120012,0.0448769278782299,-0.011000580964141487
4.400140014000001,0.04396214089458463,-0.012174573617511321
4.400160016,0.04278607137664789,-0.013389271828249404
4.400180018,0.041129616109001475,-0.014670161609639569
4.400200020000001,0.038531237062559474,-0.015877624393591798
4.400220022,0.03524197364888956,-0.01667927285910498
4.400240024,0.03103937073783545,-0.016308181037501677
4.400260026000001,0.0265953834897171,-0.01447234019833032
4.400280028,0.022365484822434847,-0.011016384393866353
4.40030003,0.01897118143616876,-0.005805193221307793
4.400320032000001,0.017286425988514667,0.0014329952234998305
4.400340034,0.019848721535694322,0.009277326482941373
4.400360036,0.025557016049794202,0.014110316977729152
4.400380038000001,0.03138804325761317,0.015524779461207262
4.40040004,0.035735130467190034,0.01489583283859127
4.400420042,0.038873983495930346,0.013685369344175701
4.400440044000001,0.04085632232092785,0.012388341072873869
4.400460046,0.042316580232708755,0.0111829708311875
4.400480048,0.04338810037603889,0.010147550381740622
4.400500050010001,0.044062345316416396,0.009260175800795195
4.40052005201,0.044726891988086284,0.008348247521264927
4.40054005401,0.045090856982026944,0.00770796834174419
4.400560056010001,0.045451510251592164,0.0070447665318059795
4.40058005801,0.045745815010762456,0.006542628089615964
4.40060006001,0.04600166404958455,0.006085082568791778
4.400620062010001,0.0462560474397898,0.005637285950979074
4.40064006401,0.04631220055824088,0.005303796766014479
4.40066006601,0.046453947011111836,0.005047873488279413
4.400680068010001,0.04652623588306166,0.004718910601098893
4.40070007001,0.04674147127109478,0.0044107675222047095
4.40072007201,0.04683239003480737,0.004151891275976968
4.400740074010001,0.046811895683105634,0.003940998071717945
4.40076007601,0.04690388499640693,0.0037099057291989732
4.40078007801,0.04692341931697894,0.003542062980681944
4.400800080010001,0.047007332498899136,0.0034172729638972336
4.40082008201,0.047070693361946185,0.003137779717026867
4.40084008401,0.04715518147750161,0.003000885661894784
4.400860086010001,0.04715879008913158,0.0028359892256188454
4.40088008801,0.04709255758667698,0.002692706184124087
4.40090009001,0.04724435345808863,0.002631663597228766
4.400920092010001,0.047217228008166266,0.002508137167738886
4.40094009401,0.04727098268648387,0.0024698246317376923
4.40096009601,0.04736495326709112,0.0022477952004032464
4.400980098010001,0.047313786007236236,0.0021542590365664256
4.40100010001,0.04733880960593457,0.0020522126983315847
4.40102010201,0.04733944439276722,0.0019655687101274404
4.401040104010001,0.04741888468300359,0.0018512703831792994
4.40106010601,0.04735067438444307,0.0017394714747520149
4.40108010801,0.047425524113455596,0.0017190201008511728
4.401100110010001,0.047378591222449154,0.001622236811950336
4.40112011201,0.04736676708613094,0.001568057670040264
4.40114011401,0.04738631203825733,0.0015590529727639822
4.401160116010001,0.047538068421255616,0.0013914918287725696
4.40118011801,0.047428400893531855,0.0013395505313443141
4.40120012001,0.04741780211864351,0.001294013896001693
4.401220122010001,0.0473806166832972,0.0012547488484357001
4.40124012401,0.04743184350486652,0.0011360842760434753
4.40126012601,0.04747703699044684,0.0011863092183469412
4.401280128010001,0.0475050121391974,0.0011021964287425794
4.40130013001,0.047468170940681814,0.0010498331971767923
4.40132013201,0.04744832392727272,0.0009661086128527098
4.401340134010001,0.04757289699839318,0.0008864082072589929
4.40136013601,0.04754370517870995,0.0009019753088275184
4.40138013801,0.04752531576274372,0.0007919628456441799
4.401400140010001,0.04742433919616794,0.0008351788330489378
4.40142014201,0.047499036532654075,0.0007159629184513815
4.40144014401,0.047499582759523956,0.0007465291784635036
4.401460146010001,0.04753833500374559,0.0007122734824762424
4.40148014801,0.047486058941485304,0.0005271245719706517
4.40150015002,0.047516020675510896,0.0006154444136334605
4.401520152020001,0.04748965497584515,0.0005721710007007934
4.401540154020001,0.04741675993198481,0.0005168977480704863
4.40156015602,0.047514829392583044,0.0004706109585933954
4.401580158020001,0.0474726546099363,0.0004169884867629564
4.401600160020001,0.0474549270780191,0.00035292985491588297
4.40162016202,0.04744186686341772,0.0003615515041968838
4.401640164020001,0.047492249050576085,0.0003465612543216978
4.401660166020001,0.04746966470195845,0.00032822640866622677
4.40168016802,0.04759568199351182,0.00030043601049509205
4.401700170020001,0.047516357657036795,0.00022169931304029042
4.401720172020001,0.047530705162512094,0.00016404754760498963
4.40174017402,0.04753504388744839,0.00024382759267553566
4.401760176020001,0.04752238274686381,0.0002208810413518135
4.401780178020001,0.04750431644692736,0.00016295245252112914
4.40180018002,0.04748001870720775,0.00011871713468607908
4.401820182020001,0.04748211756921287,0.00011178953468210864
4.401840184020001,0.04745983568186812,0.00010813850099059344
4.40186018602,0.0475233897335335,6.310769431979238e-05
4.401880188020001,0.04753031727842327,-5.126121646960996e-06
4.401900190020001,0.04753466937673355,-4.445409903472766e-05
4.40192019202,0.04754032778722373,-3.930831074069191e-05
4.401940194020001,0.04748924865149835,-9.587897467279796e-05
4.401960196020001,0.04745863900726537,-0.00010207233685518083
4.40198019802,0.04748182412293412,-8.141955273611307e-05
4.402000200020001,0.047497248309061824,-5.8504742990884984e-05
4.402020202020001,0.04748925775851621,-9.350021856248045e-05
4.40204020402,0.04750548707552738,-0.00012724558911906755
4.402060206020001,0.04748258282515887,-0.00014118448822917837
4.402080208020001,0.047508427123817504,-0.0002599858868755599
4.40210021002,0.047408305645920495,-0.00026690683884031396
4.402120212020001,0.04746247716863803,-0.0002211297230726092
4.402140214020001,0.04748329846186092,-0.00025592701431027126
4.40216021602,0.04752673712901261,-0.00021026324931557733
4.402180218020001,0.04747540363455539,-0.0003165096574176164
4.402200220020001,0.047505373181973426,-0.0003094682996770161
4.40222022202,0.04751435608763931,-0.0003459688887911712
4.402240224020001,0.04746666158424252,-0.0003532201028898889
4.402260226020001,0.047442229186704196,-0.00037802712333721844
4.40228022802,0.04745778765887686,-0.0003859076650337169
4.402300230020001,0.047470220651956295,-0.0003754517783347566
4.402320232020001,0.047441581813004036,-0.0004403081243956851
4.40234023402,0.04750143248982359,-0.0004534633910281069
4.402360236020001,0.047466931878882575,-0.0004557619207421239
4.402380238020001,0.04747751624337015,-0.0005002383044087309
4.40240024002,0.04753732666049156,-0.0004408165049003855
4.402420242020001,0.04751838613885323,-0.0005922372093884395
4.402440244020001,0.04743908429520349,-0.00046272684817147067
4.40246024602,0.047388350367071994,-0.0005563563984678846
4.402480248020001,0.04749566461054608,-0.0004412721809292919
4.40250025003,0.04745397698966181,-0.0006453363939635387
4.40252025203,0.0474763722382508,-0.0005126984256494105
4.40254025403,0.04747608469323265,-0.0005356776030411847
4.40256025603,0.047482836128508836,-0.0006414689123263803
4.40258025803,0.04750135699809765,-0.000626992715386826
4.40260026003,0.04739938121553232,-0.0005770195276456579
4.40262026203,0.04741825204527434,-0.0006431268229138282
4.40264026403,0.047516016625493845,-0.0006311410705788258
4.40266026603,0.04746548559391214,-0.0006622614375384889
4.40268026803,0.04748672889543864,-0.0006695285027561622
4.40270027003,0.04744462924670301,-0.0007464668353228121
4.40272027203,0.04740339603880262,-0.000684323483376742
4.40274027403,0.04746167940154282,-0.0007275401663565731
4.40276027603,0.04736867396128671,-0.000738825606893305
4.40278027803,0.04746810330653384,-0.00075502920190312
4.40280028003,0.04740393639958492,-0.0007338354370233988
4.40282028203,0.047394796965254525,-0.000755031060195914
4.40284028403,0.04743869289887898,-0.0008361395517993593
4.40286028603,0.04745181660628778,-0.000688272295062662
4.40288028803,0.04740402026964412,-0.0008465652617354394
4.40290029003,0.047424383712269355,-0.0008240566561866572
4.40292029203,0.047375259026180734,-0.0007909415285219379
4.40294029403,0.04751281067046412,-0.0008407345258380598
4.40296029603,0.047411436758796374,-0.0008539187838602393
4.40298029803,0.0474992000871592,-0.0007860690419593721
4.40300030003,0.047387951636261035,-0.0008874630993604762
4.40302030203,0.047344224176746996,-0.000911387662323293
4.40304030403,0.04745003063950222,-0.0009087838501795568
4.40306030603,0.047363905733027074,-0.0009140982508364804
4.40308030803,0.04741711079342606,-0.0008110277363739694
4.40310031003,0.047483746543195454,-0.0009766732896517947
4.40312031203,0.047469422178438136,-0.0009324282907576063
4.40314031403,0.047412354801174506,-0.000953656390399708
4.40316031603,0.047394039221661605,-0.000957433203045097
4.40318031803,0.0474049315941287,-0.0009284487019238438
4.40320032003,0.047367519512409556,-0.0009285594263674785
4.40322032203,0.047473164396619694,-0.0009385969554313364
4.40324032403,0.047393793030741725,-0.0009752618917705583
4.40326032603,0.04738743046649137,-0.0010049728362686965
4.40328032803,0.04735513050620725,-0.0009874339327740952
4.40330033003,0.04735288990073655,-0.0010155385428897191
4.40332033203,0.04737450483221703,-0.001065851055034343
4.40334033403,0.047355247962669746,-0.000905867699233346
4.40336033603,0.04737732888979596,-0.0010652931512885166
4.40338033803,0.047375196419817085,-0.0010313113707789874
4.40340034003,0.04734040345777614,-0.001092620320296337
4.40342034203,0.04739576857051074,-0.0011108816790875026
4.40344034403,0.04734048894007688,-0.0010333491034484159
4.40346034603,0.04734966580154213,-0.0011009578861715923
4.40348034803,0.04741433428023125,-0.0010752793865474852
4.40350035004,0.047368058027463834,-0.001029765242682606
4.40352035204,0.04738730177325125,-0.001102326161864238
4.40354035404,0.04733513051144978,-0.0010672586518158996
4.40356035604,0.04733689987352536,-0.00110565569990483
4.40358035804,0.047350101326898285,-0.001099826101261022
4.40360036004,0.047396179803324404,-0.0011313606702358153
4.40362036204,0.047340593179783536,-0.0011007844964148576
4.40364036404,0.04726763529615929,-0.0011144710464050878
4.40366036604,0.04741184225786793,-0.0010985801789330403
4.40368036804,0.0473497122017662,-0.0010890001417967372
4.40370037004,0.04726115579749968,-0.0012052635750199768
4.40372037204,0.047350115438937294,-0.0011205816236279321
4.40374037404,0.04726004567582651,-0.0012412436617927308
4.40376037604,0.04737302197521102,-0.0011716763170950004
4.40378037804,0.04727287389117129,-0.0011175571545001695
4.40380038004,0.04730657092057314,-0.001190728140895447
4.40382038204,0.04727905562134952,-0.0012079439361235168
4.40384038404,0.04738994917410166,-0.0011513587310933715
4.40386038604,0.04732049116963919,-0.0011319443533261758
4.40388038804,0.047308974094488435,-0.0012052136399687144
4.4039003900400004,0.04732278606817805,-0.0012650135756027735
4.40392039204,0.04732121639688916,-0.001214072133150904
4.40394039404,0.04734306028487083,-0.0012212088589817318
4.4039603960400004,0.04730958032123247,-0.001241913785690024
4.40398039804,0.047223656118847615,-0.0013230104708606561
4.40400040004,0.047289429069816,-0.0012393375246623403
4.4040204020400004,0.047307385791365085,-0.0012780698209702871
4.40404040404,0.047298623642452076,-0.0012657481760104308
4.40406040604,0.047264540382612984,-0.001301435673366495
4.4040804080400004,0.047229760194280816,-0.00122055807433484
4.40410041004,0.04728729402148004,-0.0013108152264791446
4.40412041204,0.047253498482322985,-0.0013327155551541587
4.4041404140400005,0.047282608093225216,-0.0012696291495894404
4.40416041604,0.04729622637884044,-0.0012929974571322589
4.40418041804,0.04725631388728478,-0.0013013640821907197
4.4042004200400005,0.04730568958268244,-0.0013322693073006217
4.40422042204,0.04728254951464759,-0.0013635579565948698
4.40424042404,0.04724293336370692,-0.0013694487381073436
4.4042604260400005,0.047335239591315935,-0.001414463631651799
4.40428042804,0.047304390322396146,-0.0013250055611392399
4.40430043004,0.047188371997405804,-0.00130734648945296
4.4043204320400005,0.04723038747060186,-0.0013444708515319053
4.40434043404,0.047168145828160805,-0.0012989970577872044
4.40436043604,0.04730253068077842,-0.0013342131261636558
4.4043804380400005,0.04724289128006235,-0.001381294738429093
4.40440044004,0.04728828197699858,-0.001358156237471246
4.40442044204,0.04719623501692386,-0.0014024694872423384
4.4044404440400005,0.047217242122552204,-0.0013985481741755805
4.40446044604,0.04721672191859489,-0.0013842207898573352
4.40448044804,0.047191487622741696,-0.0014237037622009154
4.4045004500500005,0.04721859467909776,-0.0013675949463980708
4.404520452050001,0.04727652123542434,-0.0014216665900522955
4.40454045405,0.04727117027713071,-0.0014360501486324062
4.4045604560500005,0.04727682015281253,-0.001420999705199653
4.404580458050001,0.047287134251966824,-0.0014242662295073268
4.40460046005,0.04719441511131632,-0.0014278848330783658
4.4046204620500005,0.04725901119643497,-0.0014203606426750406
4.404640464050001,0.04720553611798765,-0.0014481692246577603
4.40466046605,0.0471657129791871,-0.0014138089021659608
4.4046804680500005,0.04723304205630593,-0.0014491144086970272
4.404700470050001,0.04718648846341895,-0.001445008806568733
4.40472047205,0.04717098922821264,-0.0014702136501692116
4.4047404740500005,0.04718383120153769,-0.0014440494023231411
4.404760476050001,0.04731169992855389,-0.0014442220001070448
4.40478047805,0.04718645975742514,-0.0014826564960006856
4.4048004800500005,0.047199028538062904,-0.0015606972126459423
4.404820482050001,0.04728537699766903,-0.0015218319060609012
4.40484048405,0.04716030641910301,-0.001491998926465045
4.4048604860500005,0.04720988572986554,-0.0013794992803417457
4.404880488050001,0.047160903782136394,-0.001472492680161773
4.40490049005,0.04717712362753575,-0.0015240200744677645
4.4049204920500005,0.047216819918089965,-0.0015538268613435567
4.404940494050001,0.0471911271072269,-0.00154060183839759
4.40496049605,0.04712676273762699,-0.0014764298773625797
4.4049804980500005,0.04716471026378554,-0.0015399377168470608
4.405000500050001,0.047176378665506676,-0.0015349501461364816
4.40502050205,0.047216290451187456,-0.0014867920812576992
4.4050405040500005,0.04714811245507241,-0.0014672930823102504
4.405060506050001,0.04715125365135072,-0.00158545397811646
4.40508050805,0.04719758361445987,-0.0015332863838957468
4.4051005100500005,0.04719263010311263,-0.0014855841848565136
4.405120512050001,0.0471309939572504,-0.0014818385735151547
4.40514051405,0.047131804499198134,-0.001593092968406238
4.4051605160500005,0.04711595418871978,-0.0015205926778052402
4.405180518050001,0.04714138673839748,-0.0015839049445598823
4.40520052005,0.047172544707799025,-0.001559835410717917
4.4052205220500005,0.0471526610838509,-0.0015755670839258488
4.405240524050001,0.047093050867212306,-0.0015643427788248968
4.40526052605,0.04716542902253936,-0.0015795192453662912
4.4052805280500005,0.04708395593797422,-0.0015828617190293964
4.405300530050001,0.04717606486029141,-0.0015611676867066868
4.40532053205,0.047163338172613645,-0.0015662346845076794
4.4053405340500005,0.04721612257412765,-0.0015886290843618103
4.405360536050001,0.047119886601037206,-0.001578092606900481
4.40538053805,0.047190237453518594,-0.001620649194200404
4.4054005400500005,0.047106459661376755,-0.0015472812375981332
4.405420542050001,0.04718199031272148,-0.001552584606628573
4.40544054405,0.047133993651399156,-0.0015701765712938347
4.4054605460500005,0.047169964981473855,-0.001638379194737194
4.405480548050001,0.0470852901971055,-0.0015987644515804249
4.405500550060001,0.047117327800311665,-0.0015884972722801788
4.4055205520600005,0.04705942809127801,-0.00159748701625596
4.405540554060001,0.047071565393341216,-0.0016210919793554282
4.405560556060001,0.0470702985720626,-0.0016749239290797385
4.4055805580600005,0.04712140884747265,-0.0016514412465928746
4.405600560060001,0.04705989688145186,-0.0016332232294598292
4.405620562060001,0.04708211635261016,-0.0016066726956964553
4.4056405640600005,0.047137287636058664,-0.001574191219542026
4.405660566060001,0.04707279904390602,-0.0016391351407510253
4.405680568060001,0.04708423250616103,-0.0016530600306255486
4.4057005700600005,0.04707852509089522,-0.0016464436948568258
4.405720572060001,0.04713517275177419,-0.0016265395734306638
4.405740574060001,0.0470676349578647,-0.0016794600338568035
4.4057605760600005,0.047065667439732714,-0.0016281532526331785
4.405780578060001,0.04706133077169497,-0.001626680234663152
4.405800580060001,0.047046993563672784,-0.0017349132524616812
4.4058205820600005,0.04703232727034608,-0.0016307540914362352
4.405840584060001,0.04711950861876214,-0.0017196496107787333
4.405860586060001,0.04704389177156912,-0.0017337815040776305
4.4058805880600005,0.04708306458697732,-0.0016055943296091023
4.405900590060001,0.0470817605663873,-0.0017037870569199844
4.405920592060001,0.04711279721432372,-0.0016968257433505052
4.4059405940600005,0.04700475162143434,-0.0017169022528697453
4.405960596060001,0.047100748171612354,-0.0016700521484609744
4.405980598060001,0.04707827250779645,-0.0017186437091407172
4.4060006000600005,0.04700522693764585,-0.0017041624218589076
4.406020602060001,0.04700894349605389,-0.0016811006397522664
4.406040604060001,0.047142716126991974,-0.001743621921512964
4.4060606060600005,0.04707905403186481,-0.0016382866055159769
4.406080608060001,0.047095733055733155,-0.001705876918971467
4.406100610060001,0.04704727602677985,-0.0016767979667489004
4.4061206120600005,0.04703713639772831,-0.0016605151251805929
4.406140614060001,0.04705053759584368,-0.0016961718955240054
4.406160616060001,0.04702706192912142,-0.0017089248332403106
4.4061806180600005,0.04703447532934346,-0.001770697829741645
4.406200620060001,0.0470656350738444,-0.0017012243987578682
4.406220622060001,0.04709209595308618,-0.00166719969144951
4.4062406240600005,0.047050287223066464,-0.00167577891247625
4.406260626060001,0.046974912799163084,-0.0017289283161766762
4.406280628060001,0.0469777460317361,-0.001710913813549278
4.4063006300600005,0.04705317972185374,-0.0017838366815283065
4.406320632060001,0.04701158214096078,-0.0017413928934772553
4.406340634060001,0.04696082297155542,-0.0017269975434691283
4.4063606360600005,0.04701223479869886,-0.0017663480865971228
4.406380638060001,0.047056923586127564,-0.0017485081749387711
4.406400640060001,0.04702040895593783,-0.0017197033372129689
4.4064206420600005,0.04706269522809331,-0.0016992498188165492
4.406440644060001,0.04698393236738725,-0.0017385845221848523
4.406460646060001,0.04698674010642751,-0.001749833071719973
4.4064806480600005,0.046998390760533276,-0.0017661638104690437
4.40650065007,0.04694393872763067,-0.001763216420201566
4.40652065207,0.046955232507451955,-0.0018147423937959345
4.40654065407,0.04702353541732198,-0.0018439389822976285
