% MetaData :path,/Users/cwheeler/PycharmProjects/WaferScreen/waferscreen/pro/princeton/8/Band03/2020-10-28/1603929175.28-F_4.40_TO_4.60-BW_100.0-ATTEN_20.0-VOLTS_0.000_s21.csv|atten,20|band,3|datetime,2020-10-28 17:52:55|freq_center_GHz,4.5|freq_max_GHz,4.6000000000000005|freq_min_GHz,4.4|freq_span_GHz,0.20000000000000018|freq_step,20002.00020002002|ifband_hz,100.0|location,princeton|plot_path,/Users/cwheeler/PycharmProjects/WaferScreen/waferscreen/pro/princeton/8/Band03/2020-10-28/1603929175.28-F_4.40_TO_4.60-BW_100.0-ATTEN_20.0-VOLTS_0.000_s21.pdf|raw_path,/Users/cwheeler/PycharmProjects/WaferScreen/waferscreen/raw/princeton/SMBK_wafer8/1603929175.28-F_4.40_TO_4.60-BW_100.0-ATTEN_20.0-VOLTS_0.000.CSV|time,1603929175.28|volts,0.0|wafer,8
% Header :freq_ghz,real,imag
4.4,0.0468351100803823,-0.007035427451713394
4.400020002000001,0.04676182698267078,-0.007442782422409305
4.400040004,0.046496862746955935,-0.0080430017796571
4.400060006,0.04624708240316955,-0.008608913136106032
4.400080008000001,0.04592296248003667,-0.009277256078050241
4.40010001,0.04550850423241892,-0.01014278870884899
4.400120012,0.044876927878249914,-0.011000580964059856
4.400140014000001,0.04396214089460678,-0.01217457361743135
4.400160016,0.042786071376672244,-0.013389271828171578
4.400180018,0.04112961610902816,-0.014670161609564757
4.400200020000001,0.03853123706259197,-0.01587762439351295
4.400220022,0.035241973648923695,-0.016679272859032864
4.400240024,0.031039370737865113,-0.016308181037445215
4.400260026000001,0.026595383489743423,-0.014472340198281943
4.400280028,0.022365484822454883,-0.011016384393825669
4.40030003,0.018971181436179322,-0.005805193221273285
4.400320032000001,0.017286425988512065,0.0014329952235312745
4.400340034,0.019848721535677443,0.009277326482977476
4.400360036,0.025557016049768535,0.014110316977775641
4.400380038000001,0.03138804325758141,0.015524779461271492
4.40040004,0.03573513046715955,0.0148958328386644
4.400420042,0.03887398349590545,0.013685369344246412
4.400440044000001,0.0408563223209053,0.012388341072948186
4.400460046,0.04231658023268841,0.011182970831264473
4.400480048,0.04338810037602044,0.010147550381819545
4.400500050010001,0.044062345316399555,0.009260175800875344
4.40052005201,0.044726891988071095,0.008348247521346285
4.40054005401,0.045090856982012914,0.007707968341826212
4.400560056010001,0.045451510251577745,0.00704476653189899
4.40058005801,0.04574581501074907,0.0065426280897095766
4.40060006001,0.04600166404957348,0.006085082568875454
4.400620062010001,0.046256047439779555,0.005637285951063213
4.40064006401,0.04631220055823123,0.00530379676609872
4.40066006601,0.04645394701110266,0.005047873488363913
4.400680068010001,0.04652623588305307,0.004718910601183521
4.40070007001,0.04674147127108676,0.0044107675222897266
4.40072007201,0.04683239003479982,0.004151891276062157
4.400740074010001,0.046811895683098466,0.003940998071803096
4.40076007601,0.04690388499639933,0.0037099057292949537
4.40078007801,0.04692341931697169,0.003542062980777966
4.400800080010001,0.047007332498892926,0.00341727296398274
4.40082008201,0.047070693361940474,0.0031377797171124877
4.40084008401,0.047155181477496144,0.003000885661980557
4.400860086010001,0.047158790089126434,0.0028359892257046274
4.40088008801,0.04709255758667208,0.0026927061842097477
4.40090009001,0.047244353458083845,0.002631663597314704
4.400920092010001,0.0472172280081617,0.002508137167824772
4.40094009401,0.04727098268647882,0.002469824631834431
4.40096009601,0.04736495326708653,0.002247795200500169
4.400980098010001,0.047313786007232315,0.0021542590366524887
4.40100010001,0.047338809605930836,0.002052212698417693
4.40102010201,0.04733944439276365,0.0019655687102135486
4.401040104010001,0.04741888468300022,0.0018512703832655568
4.40106010601,0.047350674384439906,0.0017394714748381439
4.40108010801,0.04742552411345247,0.0017190201009374406
4.401100110010001,0.0473785912224462,0.001622236812036517
4.40112011201,0.04736676708612808,0.0015680576701264277
4.40114011401,0.04738631203825414,0.0015590529728609463
4.401160116010001,0.047538068421252765,0.0013914918288698563
4.40118011801,0.04742840089352943,0.0013395505314305854
4.40120012001,0.047417802118641154,0.0012940138960879505
4.401220122010001,0.04738061668329492,0.0012547488485218847
4.40124012401,0.04743184350486446,0.0011360842761297535
4.40126012601,0.04747703699044469,0.0011863092184332992
4.401280128010001,0.04750501213919539,0.0011021964288289929
4.40130013001,0.047468170940679906,0.0010498331972631364
4.40132013201,0.04744832392727096,0.0009661086129390192
4.401340134010001,0.04757289699839135,0.0008864082073563456
4.40136013601,0.0475437051787081,0.0009019753089248121
4.40138013801,0.04752531576274228,0.0007919628457306246
4.401400140010001,0.04742433919616642,0.0008351788331351986
4.40142014201,0.047499036532652764,0.0007159629185377776
4.40144014401,0.047499582759522596,0.0007465291785498963
4.401460146010001,0.047538335003744284,0.0007122734825627149
4.40148014801,0.047486058941484346,0.0005271245720570306
4.40150015002,0.04751602067550964,0.0006154444137306918
4.401520152020001,0.047489654975844106,0.0005721710007871791
4.401540154020001,0.04741675993198388,0.0005168977481567402
4.40156015602,0.047514829392582184,0.00047061095867982974
4.401580158020001,0.04747265460993554,0.0004169884868493144
4.401600160020001,0.04745492707801846,0.0003529298550022063
4.40162016202,0.04744186686341706,0.00036155150428317934
4.401640164020001,0.04749224905057545,0.0003465612544080836
4.401660166020001,0.04746966470195785,0.0003282264087525709
4.40168016802,0.047595681993511274,0.00030043601058166863
4.401700170020001,0.04751635765703635,0.00022169931313752514
4.401720172020001,0.0475307051625118,0.00016404754769144478
4.40174017402,0.04753504388744794,0.00024382759276200122
4.401760176020001,0.047522382746863406,0.00022088104143825824
4.401780178020001,0.047504316446927056,0.00016295245260753918
4.40180018002,0.04748001870720754,0.0001187171347724475
4.401820182020001,0.04748211756921267,0.00011178953476847706
4.401840184020001,0.04745983568186792,0.00010813850107692369
4.40186018602,0.04752338973353338,6.310769440623712e-05
4.401880188020001,0.04753031727842328,-5.12612154969852e-06
4.401900190020001,0.04753466937673364,-4.4454098937465186e-05
4.40192019202,0.04754032778722381,-3.9308310654215944e-05
4.401940194020001,0.047489248651498533,-9.587897458641914e-05
4.401960196020001,0.04745863900726556,-0.00010207233676885405
4.40198019802,0.047481824122934266,-8.141955264975506e-05
4.402000200020001,0.047497248309061935,-5.8504742904488816e-05
4.402020202020001,0.04748925775851638,-9.350021847609469e-05
4.40204020402,0.04750548707552761,-0.00012724558903266098
4.402060206020001,0.04748258282515912,-0.0001411844881428169
4.402080208020001,0.04750842712381804,-0.00025998588677833903
4.40210021002,0.047408305645921044,-0.00026690683874330476
4.402120212020001,0.047462477168638426,-0.00022112972298627548
4.402140214020001,0.04748329846186138,-0.00025592701422390285
4.40216021602,0.047526737129012994,-0.0002102632492291326
4.402180218020001,0.04747540363455596,-0.00031650965733125494
4.402200220020001,0.04750537318197398,-0.0003094682995906095
4.40222022202,0.04751435608763994,-0.00034596888870474726
4.402240224020001,0.04746666158424316,-0.00035322010280354477
4.402260226020001,0.04744222918670488,-0.0003780271232509229
4.40228022802,0.04745778765887765,-0.00038590766493660014
4.402300230020001,0.047470220651957065,-0.0003754517782376156
4.402320232020001,0.04744158181300484,-0.00044030812430938607
4.40234023402,0.047501432489824406,-0.00045346339094170726
4.402360236020001,0.04746693187888341,-0.0004557619206557867
4.402380238020001,0.047477516243371064,-0.0005002383043223695
4.40240024002,0.04753732666049236,-0.0004408165048139234
4.402420242020001,0.047518386138854306,-0.0005922372093020052
4.402440244020001,0.04743908429520433,-0.0004627268480851786
4.40246024602,0.04738835036707301,-0.0005563563983816897
4.402480248020001,0.04749566461054699,-0.00044127218083210226
4.40250025003,0.04745397698966299,-0.0006453363938772189
4.40252025203,0.04747637223825173,-0.0005126984255630525
4.40254025403,0.047476084693233625,-0.0005356776029548267
4.40256025603,0.04748283612851,-0.0006414689122400119
4.40258025803,0.04750135699809879,-0.0006269927153004194
4.40260026003,0.04739938121553337,-0.0005770195275594456
4.40262026203,0.047418252045275514,-0.0006431268228275742
4.40264026403,0.047516016625495136,-0.0006311410704815945
4.40266026603,0.047465485593913496,-0.0006622614374413582
4.40268026803,0.047486728895439846,-0.0006695285026697834
4.40270027003,0.04744462924670436,-0.0007464668352365096
4.40272027203,0.04740339603880386,-0.0006843234832905193
4.40274027403,0.04746167940154415,-0.0007275401662702394
4.40276027603,0.047368673961288056,-0.0007388256068071378
4.40278027803,0.04746810330653521,-0.0007550292018167724
4.40280028003,0.04740393639958626,-0.0007338354369371691
4.40282028203,0.04739479696525589,-0.0007550310601097017
4.40284028403,0.0474386928988807,-0.0008361395517022842
4.40286028603,0.047451816606289186,-0.0006882722949655591
4.40288028803,0.047404020269645665,-0.0008465652616492132
4.40290029003,0.04742438371227084,-0.0008240566561003929
4.40292029203,0.04737525902618217,-0.0007909415284357568
4.40294029403,0.047512810670465644,-0.0008407345257516394
4.40296029603,0.04741143675879793,-0.0008539187837739957
4.40298029803,0.04749920008716063,-0.0007860690418729725
4.40300030003,0.04738795163626265,-0.0008874630992742744
4.40302030203,0.047344224176748655,-0.0009113876622371762
4.40304030403,0.04745003063950408,-0.0009087838500824556
4.40306030603,0.04736390573302874,-0.0009140982507503271
4.40308030803,0.04741711079342754,-0.0008110277362877172
4.40310031003,0.047483746543197224,-0.0009766732895654193
4.40312031203,0.04746942217843983,-0.0009324282906712604
4.40314031403,0.04741235480117624,-0.0009536563903134645
4.40316031603,0.047394039221663346,-0.0009574332029588881
4.40318031803,0.047404931594130395,-0.0009284487018376142
4.40320032003,0.04736751951241125,-0.0009285594262813165
4.40322032203,0.0474731643966214,-0.0009385969553449836
4.40324032403,0.04739379303074372,-0.0009752618916735734
4.40326032603,0.04738743046649342,-0.0010049728361717237
4.40328032803,0.04735513050620905,-0.0009874339326879557
4.40330033003,0.0473528899007384,-0.001015538542803585
4.40332033203,0.04737450483221897,-0.0010658510549481689
4.40334033403,0.0473552479626714,-0.0009058676991472083
4.40336033603,0.0473773288897979,-0.001065293151202339
4.40338033803,0.04737519641981896,-0.0010313113706928133
4.40340034003,0.047340403457778124,-0.0010926203202102237
4.40342034203,0.047395768570513,-0.0011108816789905142
4.40344034403,0.047340488940078994,-0.001033349103351542
4.40346034603,0.04734966580154413,-0.0011009578860854616
4.40348034803,0.04741433428023321,-0.0010752793864612382
4.40350035004,0.04736805802746571,-0.001029765242596444
4.40352035204,0.04738730177325325,-0.0011023261617780413
4.40354035404,0.04733513051145172,-0.0010672586517297966
4.40356035604,0.04733689987352737,-0.0011056556998187252
4.40358035804,0.04735010132690053,-0.0010998261011641265
4.40360036004,0.047396179803326714,-0.0011313606701388252
4.40362036204,0.047340593179785534,-0.001100784496328745
4.40364036404,0.04726763529616132,-0.001114471046319108
4.40366036604,0.04741184225786993,-0.0010985801788467994
4.40368036804,0.04734971220176819,-0.0010890001417106073
4.40370037004,0.04726115579750186,-0.001205263574934009
4.40372037204,0.04735011543893933,-0.001120581623541803
4.40374037404,0.04726004567582877,-0.0012412436617067648
4.40376037604,0.04737302197521314,-0.0011716763170088297
4.40378037804,0.04727287389117358,-0.0011175571544034327
4.40380038004,0.04730657092057557,-0.0011907281407986404
4.40382038204,0.047279055621351714,-0.0012079439360375174
4.40384038404,0.047389949174103746,-0.0011513587310071705
4.40386038604,0.047320491169641245,-0.0011319443532401005
4.40388038804,0.04730897409449063,-0.00120521363988266
4.4039003900400004,0.04732278606818034,-0.0012650135755166944
4.40392039204,0.047321216396891366,-0.001214072133064827
4.40394039404,0.04734306028487305,-0.0012212088588956153
4.4039603960400004,0.04730958032123473,-0.0012419137856039685
4.40398039804,0.04722365611885032,-0.0013230104707640195
4.40400040004,0.047289429069818534,-0.001239337524565569
4.4040204020400004,0.04730738579136741,-0.0012780698208842353
4.40404040404,0.04729862364245437,-0.0012657481759243952
4.40406040604,0.04726454038261535,-0.001301435673280521
4.4040804080400004,0.04722976019428304,-0.0012205580742489291
4.40410041004,0.04728729402148243,-0.0013108152263931298
4.40412041204,0.04725349848232541,-0.0013327155550682049
4.4041404140400005,0.04728260809322752,-0.0012696291495034335
4.40416041604,0.047296226378842794,-0.0012929974570462278
4.40418041804,0.04725631388728744,-0.0013013640820940162
4.4042004200400005,0.047305689582684864,-0.0013322693072145742
4.40422042204,0.047282549514650066,-0.0013635579565088644
4.40424042404,0.04724293336370941,-0.0013694487380214097
4.4042604260400005,0.04733523959131851,-0.0014144636315656968
4.40428042804,0.047304390322398554,-0.0013250055610531941
4.40430043004,0.047188371997408184,-0.0013073464893671241
4.4043204320400005,0.047230387470604304,-0.001344470851445994
4.40434043404,0.047168145828163165,-0.0012989970577014058
4.40436043604,0.04730253068078115,-0.0013342131260668574
4.4043804380400005,0.047242891280065175,-0.0013812947383324168
4.40440044004,0.047288281977001044,-0.001358156237385228
4.40442044204,0.047196235016926415,-0.0014024694871564887
4.4044404440400005,0.047217242122554744,-0.0013985481740896892
4.40446044604,0.04721672191859741,-0.001384220789771449
4.40448044804,0.047191487622744284,-0.0014237037621150743
4.4045004500500005,0.04721859467910025,-0.0013675949463121794
4.404520452050001,0.04727652123542725,-0.0014216665899555482
4.40454045405,0.047271170277133644,-0.0014360501485356694
4.4045604560500005,0.04727682015281512,-0.0014209997051136541
4.404580458050001,0.047287134251969405,-0.0014242662294213105
4.40460046005,0.04719441511131892,-0.0014278848329925195
4.4046204620500005,0.04725901119643755,-0.0014203606425890747
4.404640464050001,0.047205536117990284,-0.001448169224571895
4.40466046605,0.04716571297918967,-0.0014138089020801665
4.4046804680500005,0.04723304205630856,-0.0014491144086111098
4.404700470050001,0.04718648846342157,-0.0014450088064829007
4.40472047205,0.04717098922821565,-0.001470213650072683
4.4047404740500005,0.047183831201540655,-0.001444049402226583
4.404760476050001,0.047311699928556515,-0.0014442220000209834
4.40478047805,0.04718645975742783,-0.0014826564959148514
4.4048004800500005,0.04719902853806574,-0.0015606972125600856
4.404820482050001,0.047285376997671796,-0.0015218319059748901
4.40484048405,0.04716030641910573,-0.0014919989263792646
4.4048604860500005,0.04720988572986805,-0.0013794992802558716
4.404880488050001,0.04716090378213907,-0.0014724926800759892
4.40490049005,0.047177123627538516,-0.0015240200743819494
4.4049204920500005,0.04721681991809314,-0.0015538268612469326
4.404940494050001,0.047191127107229704,-0.0015406018383117507
4.40496049605,0.047126762737629675,-0.001476429877276855
4.4049804980500005,0.04716471026378834,-0.0015399377167612683
4.405000500050001,0.047176378665509465,-0.0015349501460506683
4.40502050205,0.04721629045119016,-0.001486792081171813
4.4050405040500005,0.04714811245507508,-0.0014672930822244874
4.405060506050001,0.04715125365135361,-0.0015854539780306917
4.40508050805,0.04719758361446266,-0.0015332863838098953
4.4051005100500005,0.047192630103115335,-0.0014855841847706726
4.405120512050001,0.047130993957253425,-0.001481838573418704
4.40514051405,0.04713180449920103,-0.0015930929683205045
4.4051605160500005,0.047115954188722546,-0.001520592677719538
4.405180518050001,0.04714138673840036,-0.0015839049444741349
4.40520052005,0.04717254470780187,-0.0015598354106321072
4.4052205220500005,0.04715266108385377,-0.0015755670838400737
4.405240524050001,0.04709305086721515,-0.001564342778739236
4.40526052605,0.04716542902254224,-0.0015795192452804988
4.4052805280500005,0.047083955937977096,-0.0015828617189437531
4.405300530050001,0.0471760648602946,-0.0015611676866101494
4.40532053205,0.047163338172616844,-0.0015662346844111628
4.4053405340500005,0.047216122574130534,-0.0015886290842759242
4.405360536050001,0.04711988660104008,-0.0015780926068147717
4.40538053805,0.047190237453521536,-0.001620649194114563
4.4054005400500005,0.047106459661379566,-0.0015472812375124448
4.405420542050001,0.047181990312724305,-0.0015525846065427527
4.40544054405,0.047133993651402015,-0.0015701765712080977
4.4054605460500005,0.04716996498147683,-0.001638379194651398
4.405480548050001,0.0470852901971084,-0.0015987644514947816
4.405500550060001,0.047117327800314565,-0.0015884972721944765
4.4055205520600005,0.047059428091280914,-0.0015974870161703618
4.405540554060001,0.04707156539334417,-0.0016210919792698127
4.405560556060001,0.04707029857206564,-0.001674923928994116
4.4055805580600005,0.04712140884747566,-0.0016514412465071585
4.405600560060001,0.04705989688145483,-0.0016332232293742276
4.405620562060001,0.047082116352613085,-0.0016066726956108224
4.4056405640600005,0.04713728763606153,-0.0015741912194562856
4.405660566060001,0.047072799043909375,-0.0016391351406547065
4.405680568060001,0.04708423250616403,-0.0016530600305399087
4.4057005700600005,0.047078525090898216,-0.0016464436947711963
4.405720572060001,0.047135172751777143,-0.0016265395733449269
4.405740574060001,0.047067634957867754,-0.001679460033771188
4.4057605760600005,0.047065667439735684,-0.001628153252547563
4.405780578060001,0.047061330771697926,-0.0016266802345775502
4.405800580060001,0.04704699356367594,-0.0017349132523761038
4.4058205820600005,0.04703232727034905,-0.0016307540913506856
4.405840584060001,0.04711950861876527,-0.0017196496106930276
4.405860586060001,0.04704389177157267,-0.0017337815039813673
4.4058805880600005,0.047083064586980604,-0.0016055943295127592
4.405900590060001,0.0470817605663904,-0.0017037870568343445
4.405920592060001,0.04711279721432681,-0.0016968257432648133
4.4059405940600005,0.04700475162143746,-0.0017169022527842477
4.405960596060001,0.047100748171615386,-0.0016700521483753034
4.405980598060001,0.04707827250779957,-0.0017186437090550809
4.4060006000600005,0.04700522693764895,-0.0017041624217734065
4.406020602060001,0.04700894349605696,-0.0016811006396667619
4.406040604060001,0.04714271612699554,-0.001743621921416489
4.4060606060600005,0.04707905403186817,-0.0016382866054196407
4.406080608060001,0.047095733055736264,-0.0017058769188858028
4.406100610060001,0.047047276026782894,-0.0016767979666633265
4.4061206120600005,0.04703713639773133,-0.0016605151250950363
4.406140614060001,0.047050537595846764,-0.0016961718954384246
4.406160616060001,0.04702706192912453,-0.001708924833154775
4.4061806180600005,0.047034475329346695,-0.001770697829656092
4.406200620060001,0.04706563507384749,-0.001701224398672263
4.406220622060001,0.047092095953089205,-0.0016671996913638527
4.4062406240600005,0.04705028722306951,-0.0016757789123906693
4.406260626060001,0.04697491279916662,-0.0017289283160805483
4.406280628060001,0.04697774603173921,-0.001710913813463822
4.4063006300600005,0.04705317972185698,-0.0017838366814427187
4.406320632060001,0.04701158214096395,-0.0017413928933917439
4.406340634060001,0.046960822971558555,-0.001726997543383707
4.4063606360600005,0.04701223479870208,-0.0017663480865116044
4.406380638060001,0.04705692358613074,-0.001748508174853173
4.406400640060001,0.04702040895594095,-0.00171970333712744
4.4064206420600005,0.047062695228096404,-0.001699249818730944
4.406440644060001,0.046983932367390804,-0.001738584522088707
4.406460646060001,0.0469867401064311,-0.0017498330716238207
4.4064806480600005,0.04699839076053648,-0.001766163810383553
4.40650065007,0.046943938727633874,-0.001763216420116176
4.40652065207,0.04695523250745527,-0.0018147423937105236
