"# Channel 1"
"# Trace 1"
Frequency, Formatted Data, Formatted Data
+4.40000000000E+009, -4.56894221575E-002, +1.24700231990E-002
+4.40002000200E+009, -4.54748838178E-002, +1.31946358306E-002
+4.40004000400E+009, -4.50369099236E-002, +1.40827862112E-002
+4.40006000600E+009, -4.46082911613E-002, +1.49333980011E-002
+4.40008000800E+009, -4.40812849083E-002, +1.58690353870E-002
+4.40010001000E+009, -4.34237018537E-002, +1.69788762168E-002
+4.40012001200E+009, -4.25393360134E-002, +1.80376364548E-002
+4.40014001400E+009, -4.13099239361E-002, +1.93489084756E-002
+4.40016001600E+009, -3.97994748724E-002, +2.06378851586E-002
+4.40018001800E+009, -3.77882141681E-002, +2.18840086116E-002
+4.40020002000E+009, -3.48499098734E-002, +2.28525483868E-002
+4.40022002200E+009, -3.13015108894E-002, +2.32467259161E-002
+4.40024002400E+009, -2.70925563341E-002, +2.22574188943E-002
+4.40026002600E+009, -2.29707521276E-002, +1.97258105150E-002
+4.40028002800E+009, -1.94471627326E-002, +1.56007531263E-002
+4.40030003000E+009, -1.71916015559E-002, +9.90226385045E-003
+4.40032003200E+009, -1.71505840480E-002, +2.59450680852E-003
+4.40034003400E+009, -2.14853493074E-002, -4.29188751153E-003
+4.40036003600E+009, -2.82334120486E-002, -7.42539956335E-003
+4.40038003800E+009, -3.42855944950E-002, -7.12222205392E-003
+4.40040004000E+009, -3.83724276116E-002, -5.14219648155E-003
+4.40042004200E+009, -4.11129311353E-002, -2.86405663220E-003
+4.40044004400E+009, -4.26861051446E-002, -7.78778346870E-004
+4.40046004600E+009, -4.37556029512E-002, +1.09499295861E-003
+4.40048004800E+009, -4.44764725343E-002, +2.70987525485E-003
+4.40050005001E+009, -4.48399240146E-002, +4.07705101877E-003
+4.40052005201E+009, -4.51693087650E-002, +5.47006848973E-003
+4.40054005401E+009, -4.52783059653E-002, +6.51714417852E-003
+4.40056005601E+009, -4.53641878108E-002, +7.58676373065E-003
+4.40058005801E+009, -4.54258278037E-002, +8.48408755651E-003
+4.40060006001E+009, -4.54551535301E-002, +9.32793346647E-003
+4.40062006201E+009, -4.54765385218E-002, +1.01629406040E-002
+4.40064006401E+009, -4.53409273045E-002, +1.08236080791E-002
+4.40066006601E+009, -4.53053925673E-002, +1.14399136355E-002
+4.40068006801E+009, -4.51724626913E-002, +1.20998907892E-002
+4.40070007001E+009, -4.51731687849E-002, +1.27908103204E-002
+4.40072007201E+009, -4.50688205790E-002, +1.33907568553E-002
+4.40074007401E+009, -4.48728807335E-002, +1.39035829168E-002
+4.40076007601E+009, -4.47681452592E-002, +1.44758764269E-002
+4.40078007801E+009, -4.46152848611E-002, +1.49609440651E-002
+4.40080008001E+009, -4.45339065957E-002, +1.54304318312E-002
+4.40082008201E+009, -4.43671135733E-002, +1.60329369830E-002
+4.40084008401E+009, -4.42714493231E-002, +1.65122751238E-002
+4.40086008601E+009, -4.40859670834E-002, +1.69829863063E-002
+4.40088008801E+009, -4.38417699428E-002, +1.74028404271E-002
+4.40090009001E+009, -4.38260643749E-002, +1.78390209476E-002
+4.40092009201E+009, -4.36180403524E-002, +1.82544221668E-002
+4.40094009401E+009, -4.35164738723E-002, +1.86269251241E-002
+4.40096009601E+009, -4.33655704732E-002, +1.91812063956E-002
+4.40098009801E+009, -4.31379210328E-002, +1.95538985193E-002
+4.40100010001E+009, -4.29708786699E-002, +1.99669241047E-002
+4.40102010201E+009, -4.27857400179E-002, +2.03535477716E-002
+4.40104010401E+009, -4.26536097338E-002, +2.08001779629E-002
+4.40106010601E+009, -4.23888797932E-002, +2.11729779566E-002
+4.40108010801E+009, -4.22904162317E-002, +2.15326742996E-002
+4.40110011001E+009, -4.20453867732E-002, +2.18985846481E-002
+4.40112011201E+009, -4.18489516019E-002, +2.22426320131E-002
+4.40114011401E+009, -4.16996179643E-002, +2.25618056988E-002
+4.40116011601E+009, -4.15805394183E-002, +2.30838242156E-002
+4.40118011801E+009, -4.12920799313E-002, +2.33711733101E-002
+4.40120012001E+009, -4.10894280932E-002, +2.37019266875E-002
+4.40122012201E+009, -4.08649158177E-002, +2.40115781900E-002
+4.40124012401E+009, -4.06702444613E-002, +2.44336178494E-002
+4.40126012601E+009, -4.05579822983E-002, +2.47088332959E-002
+4.40128012801E+009, -4.03559043403E-002, +2.50866897017E-002
+4.40130013001E+009, -4.01140788727E-002, +2.54005920874E-002
+4.40132013201E+009, -3.98663650537E-002, +2.57478105237E-002
+4.40134013401E+009, -3.97371183536E-002, +2.61711228892E-002
+4.40136013601E+009, -3.95320865367E-002, +2.64278564328E-002
+4.40138013801E+009, -3.92617373889E-002, +2.67917677786E-002
+4.40140014001E+009, -3.90104780423E-002, +2.69805128711E-002
+4.40142014201E+009, -3.88048174291E-002, +2.74017740069E-002
+4.40144014401E+009, -3.86246088203E-002, +2.76569568395E-002
+4.40146014601E+009, -3.84343455355E-002, +2.79857412212E-002
+4.40148014801E+009, -3.80774611944E-002, +2.83779950507E-002
+4.40150015002E+009, -3.79493587323E-002, +2.86006497211E-002
+4.40152015202E+009, -3.76944270920E-002, +2.88916056249E-002
+4.40154015402E+009, -3.73934154550E-002, +2.91607404971E-002
+4.40156015602E+009, -3.72290305156E-002, +2.95276103630E-002
+4.40158015802E+009, -3.69482676751E-002, +2.98102722383E-002
+4.40160016002E+009, -3.66774638090E-002, +3.01140882645E-002
+4.40162016202E+009, -3.64547039442E-002, +3.03630698599E-002
+4.40164016402E+009, -3.62630224062E-002, +3.06696434696E-002
+4.40166016602E+009, -3.60115934602E-002, +3.09296287716E-002
+4.40168016802E+009, -3.58633909809E-002, +3.12930726132E-002
+4.40170017002E+009, -3.55249209994E-002, +3.15568278438E-002
+4.40172017202E+009, -3.52679943474E-002, +3.18647676840E-002
+4.40174017402E+009, -3.50943371152E-002, +3.20628656193E-002
+4.40176017602E+009, -3.48370263248E-002, +3.23234782661E-002
+4.40178017802E+009, -3.45497684005E-002, +3.26036828911E-002
+4.40180018002E+009, -3.42653004526E-002, +3.28672398459E-002
+4.40182018202E+009, -3.40237876438E-002, +3.31201730087E-002
+4.40184018402E+009, -3.37654101366E-002, +3.33518331609E-002
+4.40186018602E+009, -3.35365970239E-002, +3.36715490348E-002
+4.40188018802E+009, -3.32487314288E-002, +3.39654669516E-002
+4.40190019002E+009, -3.29773833665E-002, +3.42350544796E-002
+4.40192019202E+009, -3.27370011728E-002, +3.44727873180E-002
+4.40194019402E+009, -3.24110752377E-002, +3.47096547404E-002
+4.40196019602E+009, -3.21343304657E-002, +3.49244561977E-002
+4.40198019802E+009, -3.19122458515E-002, +3.51587658472E-002
+4.40200020002E+009, -3.16849502770E-002, +3.53844025763E-002
+4.40202020202E+009, -3.13971712385E-002, +3.56294258018E-002
+4.40204020402E+009, -3.11243667986E-002, +3.58895707011E-002
+4.40206020602E+009, -3.08389608539E-002, +3.61050425600E-002
+4.40208020802E+009, -3.05035466962E-002, +3.64232326873E-002
+4.40210021002E+009, -3.01703405064E-002, +3.65700593000E-002
+4.40212021202E+009, -2.99753111062E-002, +3.67996788223E-002
+4.40214021402E+009, -2.96949368577E-002, +3.70532030528E-002
+4.40216021602E+009, -2.94894551082E-002, +3.72720671574E-002
+4.40218021802E+009, -2.91043669499E-002, +3.75093315466E-002
+4.40220022002E+009, -2.88567441669E-002, +3.77378400001E-002
+4.40222022202E+009, -2.85599943187E-002, +3.79744710748E-002
+4.40224022402E+009, -2.82506384339E-002, +3.81459061299E-002
+4.40226022602E+009, -2.79400404409E-002, +3.83439976381E-002
+4.40228022802E+009, -2.76653041497E-002, +3.85619174900E-002
+4.40230023002E+009, -2.74019422757E-002, +3.87646278494E-002
+4.40232023202E+009, -2.70518949702E-002, +3.89755376446E-002
+4.40234023402E+009, -2.67932520519E-002, +3.92264370306E-002
+4.40236023602E+009, -2.64879482672E-002, +3.93916988402E-002
+4.40238023802E+009, -2.61719578786E-002, +3.96155702698E-002
+4.40240024002E+009, -2.59678857779E-002, +3.98203547629E-002
+4.40242024202E+009, -2.55426934631E-002, +4.00739139192E-002
+4.40244024402E+009, -2.53185961440E-002, +4.01204377369E-002
+4.40246024602E+009, -2.49220585853E-002, +4.03095060603E-002
+4.40248024802E+009, -2.47848626794E-002, +4.05184335815E-002
+4.40250025003E+009, -2.42960193864E-002, +4.07676321752E-002
+4.40252025203E+009, -2.41261655338E-002, +4.08925044136E-002
+4.40254025403E+009, -2.38104275566E-002, +4.10771117274E-002
+4.40256025603E+009, -2.34253607330E-002, +4.13071868287E-002
+4.40258025803E+009, -2.31483283183E-002, +4.14840563662E-002
+4.40260026003E+009, -2.28415122582E-002, +4.15367260254E-002
+4.40262026203E+009, -2.24924603417E-002, +4.17491732483E-002
+4.40264026403E+009, -2.22479069582E-002, +4.19904847672E-002
+4.40266026603E+009, -2.18928498068E-002, +4.21202331453E-002
+4.40268026803E+009, -2.15917017468E-002, +4.22993629418E-002
+4.40270027003E+009, -2.11980872784E-002, +4.24522220011E-002
+4.40272027203E+009, -2.09276871504E-002, +4.25391838800E-002
+4.40274027403E+009, -2.06075067960E-002, +4.27606242934E-002
+4.40276027603E+009, -2.02470886135E-002, +4.28298089980E-002
+4.40278027803E+009, -1.99660176521E-002, +4.30714411151E-002
+4.40280028003E+009, -1.96462133359E-002, +4.31473985564E-002
+4.40282028203E+009, -1.93111371220E-002, +4.32887610626E-002
+4.40284028403E+009, -1.89425719583E-002, +4.35006629939E-002
+4.40286028603E+009, -1.87683507598E-002, +4.35878151293E-002
+4.40288028803E+009, -1.82890408158E-002, +4.37420712416E-002
+4.40290029003E+009, -1.80015072469E-002, +4.38827640048E-002
+4.40292029203E+009, -1.76956414975E-002, +4.39534415978E-002
+4.40294029403E+009, -1.73844358466E-002, +4.42261845816E-002
+4.40296029603E+009, -1.70144122385E-002, +4.42615328361E-002
+4.40298029803E+009, -1.67898718237E-002, +4.44397582982E-002
+4.40300030003E+009, -1.63338136983E-002, +4.44928317946E-002
+4.40302030203E+009, -1.59742801835E-002, +4.45772202250E-002
+4.40304030403E+009, -1.56913793760E-002, +4.47896406444E-002
+4.40306030603E+009, -1.53331857062E-002, +4.48226344384E-002
+4.40308030803E+009, -1.51241405767E-002, +4.49477533788E-002
+4.40310031003E+009, -1.46646654659E-002, +4.51730856071E-002
+4.40312031203E+009, -1.43754605163E-002, +4.52499900488E-002
+4.40314031403E+009, -1.40103120922E-002, +4.53050990881E-002
+4.40316031603E+009, -1.36736487540E-002, +4.53887977571E-002
+4.40318031803E+009, -1.33765384280E-002, +4.54879959563E-002
+4.40320032003E+009, -1.30366974925E-002, +4.55476524736E-002
+4.40322032203E+009, -1.27282489386E-002, +4.57446606833E-002
+4.40324032403E+009, -1.23402442191E-002, +4.57694344100E-002
+4.40326032603E+009, -1.19791831380E-002, +4.58593252018E-002
+4.40328032803E+009, -1.16561077179E-002, +4.59088070407E-002
+4.40330033003E+009, -1.12966527652E-002, +4.59968818159E-002
+4.40332033203E+009, -1.09210642867E-002, +4.61108458111E-002
+4.40334033403E+009, -1.07382658221E-002, +4.61305728669E-002
+4.40336033603E+009, -1.02553874591E-002, +4.62663286883E-002
+4.40338033803E+009, -9.95367965551E-003, +4.63292251206E-002
+4.40340034003E+009, -9.55140854314E-003, +4.63797176959E-002
+4.40342034203E+009, -9.21053384125E-003, +4.65054728269E-002
+4.40344034403E+009, -8.93874317260E-003, +4.65004147718E-002
+4.40346034603E+009, -8.53847656160E-003, +4.65864505816E-002
+4.40348034803E+009, -8.23979195500E-003, +4.67052582643E-002
+4.40350035004E+009, -7.93835165821E-003, +4.67094841622E-002
+4.40352035204E+009, -7.53308594269E-003, +4.67976934100E-002
+4.40354035404E+009, -7.22045743871E-003, +4.67933608105E-002
+4.40356035604E+009, -6.84489956673E-003, +4.68524483254E-002
+4.40358035804E+009, -6.51435499152E-003, +4.69127369929E-002
+4.40360036004E+009, -6.15141671064E-003, +4.70089130843E-002
+4.40362036204E+009, -5.83400636709E-003, +4.69926362192E-002
+4.40364036404E+009, -5.47090181698E-003, +4.69631837242E-002
+4.40366036604E+009, -5.16649918780E-003, +4.71423053195E-002
+4.40368036804E+009, -4.82778549235E-003, +4.71155351677E-002
+4.40370037004E+009, -4.36164935232E-003, +4.70748926980E-002
+4.40372037204E+009, -4.11567942981E-003, +4.71842168324E-002
+4.40374037404E+009, -3.64562005661E-003, +4.71355710426E-002
+4.40376037604E+009, -3.38534226248E-003, +4.72664309444E-002
+4.40378037804E+009, -3.08902888071E-003, +4.71850764596E-002
+4.40380038004E+009, -2.67813456121E-003, +4.72457096575E-002
+4.40382038204E+009, -2.31776872468E-003, +4.72376563468E-002
+4.40384038404E+009, -2.04060837688E-003, +4.73599918402E-002
+4.40386038604E+009, -1.71385716701E-003, +4.73029901398E-002
+4.40388038804E+009, -1.29854495935E-003, +4.73065043179E-002
+4.40390039004E+009, -8.97887437111E-004, +4.73311751254E-002
+4.40392039204E+009, -6.07012243107E-004, +4.73328958396E-002
+4.40394039404E+009, -2.58838211137E-004, +4.73581007959E-002
+4.40396039604E+009, +1.04561652317E-004, +4.73257626128E-002
+4.40398039804E+009, +5.28745074277E-004, +4.72392261006E-002
+4.40400040004E+009, +7.85462366607E-004, +4.72991448984E-002
+4.40402040204E+009, +1.16559532342E-003, +4.73102906398E-002
+4.40404040404E+009, +1.49474541704E-003, +4.72919406776E-002
+4.40406040604E+009, +1.87139221399E-003, +4.72454061637E-002
+4.40408040804E+009, +2.13088632051E-003, +4.71974504980E-002
+4.40410041004E+009, +2.56331048220E-003, +4.72359593086E-002
+4.40412041204E+009, +2.92500000392E-003, +4.71817085802E-002
+4.40414041404E+009, +3.20369772876E-003, +4.71910299436E-002
+4.40416041604E+009, +3.56829445188E-003, +4.71791494922E-002
+4.40418041804E+009, +3.91494381527E-003, +4.71118452792E-002
+4.40420042004E+009, +4.28888697796E-003, +4.71297003692E-002
+4.40422042204E+009, +4.65861408334E-003, +4.70722433471E-002
+4.40424042404E+009, +5.00114305960E-003, +4.69974330230E-002
+4.40426042604E+009, +5.39292173487E-003, +4.70482944398E-002
+4.40428042804E+009, +5.64053215749E-003, +4.69855869442E-002
+4.40430043004E+009, +5.95058071555E-003, +4.68299284193E-002
+4.40432043204E+009, +6.32986016185E-003, +4.68236048679E-002
+4.40434043404E+009, +6.61551652814E-003, +4.67199776893E-002
+4.40436043604E+009, +7.00372254993E-003, +4.68001859389E-002
+4.40438043804E+009, +7.38051330989E-003, +4.66832601147E-002
+4.40440044004E+009, +7.70050973449E-003, +4.66768502636E-002
+4.40442044204E+009, +8.06812010841E-003, +4.65226499498E-002
+4.40444044404E+009, +8.40301357872E-003, +4.64845485452E-002
+4.40446044604E+009, +8.72414430828E-003, +4.64243923172E-002
+4.40448044804E+009, +9.09390959060E-003, +4.63288705324E-002
+4.40450045005E+009, +9.37745020050E-003, +4.62982659194E-002
+4.40452045205E+009, +9.77492302807E-003, +4.62767919784E-002
+4.40454045405E+009, +1.01219028854E-002, +4.61971087989E-002
+4.40456045605E+009, +1.04414560015E-002, +4.61312579548E-002
+4.40458045805E+009, +1.07794648441E-002, +4.60641372190E-002
+4.40460046005E+009, +1.10962189299E-002, +4.58936335264E-002
+4.40462046205E+009, +1.14336257637E-002, +4.58770505320E-002
+4.40464046405E+009, +1.17799109857E-002, +4.57350361480E-002
+4.40466046605E+009, +1.20672841025E-002, +4.56178034416E-002
+4.40468046805E+009, +1.24463569745E-002, +4.55867128945E-002
+4.40470047005E+009, +1.27599441172E-002, +4.54514748945E-002
+4.40472047205E+009, +1.31083171350E-002, +4.53369140418E-002
+4.40474047405E+009, +1.34132427720E-002, +4.52601825435E-002
+4.40476047605E+009, +1.37732615114E-002, +4.52855384715E-002
+4.40478047805E+009, +1.41032102038E-002, +4.50539644945E-002
+4.40480048005E+009, +1.45065808239E-002, +4.49415529719E-002
+4.40482048205E+009, +1.48177574951E-002, +4.49294659770E-002
+4.40484048405E+009, +1.50769746437E-002, +4.47102381780E-002
+4.40486048605E+009, +1.53065996171E-002, +4.46809169227E-002
+4.40488048805E+009, +1.57025273669E-002, +4.44943784599E-002
+4.40490049005E+009, +1.60773509040E-002, +4.43793016942E-002
+4.40492049205E+009, +1.64381679915E-002, +4.42902821641E-002
+4.40494049405E+009, +1.67366506409E-002, +4.41504298620E-002
+4.40496049605E+009, +1.69731049742E-002, +4.39889226834E-002
+4.40498049805E+009, +1.73628165675E-002, +4.38795385491E-002
+4.40500050005E+009, +1.76784742977E-002, +4.37657208606E-002
+4.40502050205E+009, +1.79628811363E-002, +4.36912295083E-002
+4.40504050405E+009, +1.82352342262E-002, +4.35037204131E-002
+4.40506050605E+009, +1.86600024590E-002, +4.33308053634E-002
+4.40508050805E+009, +1.89410855820E-002, +4.32573478516E-002
+4.40510051005E+009, +1.92068395409E-002, +4.31329179545E-002
+4.40512051205E+009, +1.94905681902E-002, +4.29376779598E-002
+4.40514051405E+009, +1.99027442200E-002, +4.27530784046E-002
+4.40516051605E+009, +2.01380481751E-002, +4.26225803642E-002
+4.40518051805E+009, +2.05134152303E-002, +4.24737435845E-002
+4.40520052005E+009, +2.08103725637E-002, +4.23628428517E-002
+4.40522052205E+009, +2.11216492562E-002, +4.21868675256E-002
+4.40524052405E+009, +2.13902088302E-002, +4.19840633397E-002
+4.40526052605E+009, +2.17376115819E-002, +4.18873348238E-002
+4.40528052805E+009, +2.20068292685E-002, +4.16545774620E-002
+4.40530053005E+009, +2.23283912952E-002, +4.15867921631E-002
+4.40532053205E+009, +2.26268309529E-002, +4.14108691010E-002
+4.40534053405E+009, +2.29692187073E-002, +4.12831801740E-002
+4.40536053605E+009, +2.32127619330E-002, +4.10358595988E-002
+4.40538053805E+009, +2.35790011387E-002, +4.09093598096E-002
+4.40540054005E+009, +2.37693333156E-002, +4.06992802736E-002
+4.40542054205E+009, +2.41035866678E-002, +4.05902431451E-002
+4.40544054405E+009, +2.43879019660E-002, +4.03647005401E-002
+4.40546054605E+009, +2.47557365842E-002, +4.01851140214E-002
+4.40548054805E+009, +2.49684974865E-002, +3.99519052610E-002
+4.40550055006E+009, +2.52636676534E-002, +3.98034294920E-002
+4.40552055206E+009, +2.55283525904E-002, +3.95657042281E-002
+4.40554055406E+009, +2.58397967291E-002, +3.93784854049E-002
+4.40556055606E+009, +2.61685342533E-002, +3.91615397152E-002
+4.40558055806E+009, +2.64578627898E-002, +3.90273740669E-002
+4.40560056006E+009, +2.66904759644E-002, +3.87932958822E-002
+4.40562056206E+009, +2.69596468293E-002, +3.86326871992E-002
+4.40564056406E+009, +2.72410611954E-002, +3.85009941252E-002
+4.40566056606E+009, +2.75364202795E-002, +3.82136197190E-002
+4.40568056806E+009, +2.78295194774E-002, +3.80154626937E-002
+4.40570057006E+009, +2.80945498387E-002, +3.78126244915E-002
+4.40572057206E+009, +2.83830064536E-002, +3.76666309348E-002
+4.40574057406E+009, +2.86581503523E-002, +3.73750353166E-002
+4.40576057606E+009, +2.88844838047E-002, +3.71956251446E-002
+4.40578057806E+009, +2.91485024372E-002, +3.69835064354E-002
+4.40580058006E+009, +2.94929761275E-002, +3.66959655346E-002
+4.40582058206E+009, +2.96651940520E-002, +3.65332099497E-002
+4.40584058406E+009, +3.00517624687E-002, +3.63331372136E-002
+4.40586058606E+009, +3.02779561842E-002, +3.60469016786E-002
+4.40588058806E+009, +3.04611400212E-002, +3.59376105586E-002
+4.40590059006E+009, +3.07955561454E-002, +3.56542955345E-002
+4.40592059206E+009, +3.10663517567E-002, +3.54595074344E-002
+4.40594059406E+009, +3.12681768893E-002, +3.51382347644E-002
+4.40596059606E+009, +3.15468250556E-002, +3.50152449858E-002
+4.40598059806E+009, +3.18212238160E-002, +3.47379791204E-002
+4.40600060006E+009, +3.20124737211E-002, +3.44615300774E-002
+4.40602060206E+009, +3.22455302152E-002, +3.42475203353E-002
+4.40604060406E+009, +3.26275413105E-002, +3.40722680382E-002
+4.40606060606E+009, +3.27518114776E-002, +3.38591222047E-002
+4.40608060806E+009, +3.30565146318E-002, +3.35884642179E-002
+4.40610061006E+009, +3.32438541059E-002, +3.33332266237E-002
+4.40612061206E+009, +3.34648239530E-002, +3.30961488511E-002
+4.40614061406E+009, +3.37379159039E-002, +3.28387441541E-002
+4.40616061606E+009, +3.39669185014E-002, +3.25685956911E-002
+4.40618061806E+009, +3.42503854592E-002, +3.22844906450E-002
+4.40620062006E+009, +3.44554085758E-002, +3.21075223154E-002
+4.40622062206E+009, +3.46812258102E-002, +3.19007465801E-002
+4.40624062406E+009, +3.48866432045E-002, +3.16142355381E-002
+4.40626062606E+009, +3.50963638766E-002, +3.12710228207E-002
+4.40628062806E+009, +3.53108845756E-002, +3.10318752058E-002
+4.40630063006E+009, +3.56388923739E-002, +3.07742285948E-002
