"# Channel 1"
"# Trace 1"
Frequency, Formatted Data, Formatted Data
+4.60000000000E+009, +4.97465922779E-002, -3.47776544652E-003
+4.60002000200E+009, +4.96871333110E-002, -3.82407629008E-003
+4.60004000400E+009, +4.97862824731E-002, -4.23390070333E-003
+4.60006000600E+009, +4.96526771167E-002, -4.56335704865E-003
+4.60008000800E+009, +4.96675075840E-002, -5.03601952687E-003
+4.60010001000E+009, +4.95946562957E-002, -5.27137944383E-003
+4.60012001200E+009, +4.96634441833E-002, -5.65609425636E-003
+4.60014001400E+009, +4.95432872747E-002, -6.02446113657E-003
+4.60016001600E+009, +4.95530509917E-002, -6.26755870727E-003
+4.60018001800E+009, +4.94532668788E-002, -6.79886707081E-003
+4.60020002000E+009, +4.94212560133E-002, -7.06942054958E-003
+4.60022002200E+009, +4.93816517437E-002, -7.43374641797E-003
+4.60024002400E+009, +4.93287582632E-002, -7.80414930830E-003
+4.60026002600E+009, +4.92739845910E-002, -8.10502361371E-003
+4.60028002800E+009, +4.92053722015E-002, -8.51948001884E-003
+4.60030003000E+009, +4.91324859094E-002, -8.89553297901E-003
+4.60032003200E+009, +4.90238241677E-002, -9.24185839398E-003
+4.60034003400E+009, +4.89903901450E-002, -9.57956731947E-003
+4.60036003600E+009, +4.89400149050E-002, -9.85902077448E-003
+4.60038003800E+009, +4.88936371464E-002, -1.02017863420E-002
+4.60040004000E+009, +4.86959139498E-002, -1.05764110398E-002
+4.60042004200E+009, +4.86436275003E-002, -1.10004479564E-002
+4.60044004400E+009, +4.86246597466E-002, -1.13290949634E-002
+4.60046004600E+009, +4.85831304850E-002, -1.16731304867E-002
+4.60048004800E+009, +4.84382348878E-002, -1.20460947241E-002
+4.60050005001E+009, +4.83404697850E-002, -1.23802522677E-002
+4.60052005201E+009, +4.83881132987E-002, -1.27525686763E-002
+4.60054005401E+009, +4.82204757434E-002, -1.30703379261E-002
+4.60056005601E+009, +4.81916555954E-002, -1.33691044031E-002
+4.60058005801E+009, +4.80293068298E-002, -1.38013318604E-002
+4.60060006001E+009, +4.79065335652E-002, -1.41595649314E-002
+4.60062006201E+009, +4.77826374795E-002, -1.44928799835E-002
+4.60064006401E+009, +4.77388401531E-002, -1.46960467798E-002
+4.60066006601E+009, +4.76484490769E-002, -1.51617329454E-002
+4.60068006801E+009, +4.74947437090E-002, -1.55208755680E-002
+4.60070007001E+009, +4.73140698904E-002, -1.58574212396E-002
+4.60072007201E+009, +4.72425791369E-002, -1.61432349738E-002
+4.60074007401E+009, +4.71110082507E-002, -1.65613220324E-002
+4.60076007601E+009, +4.68987018108E-002, -1.69357302876E-002
+4.60078007801E+009, +4.68843112741E-002, -1.71634225709E-002
+4.60080008001E+009, +4.67713386849E-002, -1.75010647762E-002
+4.60082008201E+009, +4.66519649956E-002, -1.79243638754E-002
+4.60084008401E+009, +4.65518878683E-002, -1.82259096128E-002
+4.60086008601E+009, +4.63911163862E-002, -1.85588862311E-002
+4.60088008801E+009, +4.62281339982E-002, -1.88512333857E-002
+4.60090009001E+009, +4.60160836610E-002, -1.92494566190E-002
+4.60092009201E+009, +4.60112794508E-002, -1.95433053354E-002
+4.60094009401E+009, +4.58863737832E-002, -1.98765623491E-002
+4.60096009601E+009, +4.56947411099E-002, -2.02286947924E-002
+4.60098009801E+009, +4.54991775876E-002, -2.05001027262E-002
+4.60100010001E+009, +4.53709094055E-002, -2.08454831121E-002
+4.60102010201E+009, +4.51360608988E-002, -2.11930471975E-002
+4.60104010401E+009, +4.51252913866E-002, -2.15431029521E-002
+4.60106010601E+009, +4.49216234837E-002, -2.17828362017E-002
+4.60108010801E+009, +4.48014957145E-002, -2.21753125381E-002
+4.60110011001E+009, +4.45991629838E-002, -2.25556902422E-002
+4.60112011201E+009, +4.45083834149E-002, -2.28401114102E-002
+4.60114011401E+009, +4.42703429388E-002, -2.31477549811E-002
+4.60116011601E+009, +4.41595181879E-002, -2.34411193567E-002
+4.60118011801E+009, +4.39012155248E-002, -2.37720413968E-002
+4.60120012001E+009, +4.37920844169E-002, -2.42066319237E-002
+4.60122012201E+009, +4.35848901566E-002, -2.43707760618E-002
+4.60124012401E+009, +4.34601273972E-002, -2.47967285152E-002
+4.60126012601E+009, +4.32511336225E-002, -2.49929103099E-002
+4.60128012801E+009, +4.30338064957E-002, -2.53122173251E-002
+4.60130013001E+009, +4.28673463125E-002, -2.56115214414E-002
+4.60132013201E+009, +4.27051309800E-002, -2.60253315755E-002
+4.60134013401E+009, +4.25220452662E-002, -2.62408046431E-002
+4.60136013601E+009, +4.22943147465E-002, -2.66467853764E-002
+4.60138013801E+009, +4.21446019924E-002, -2.68860948772E-002
+4.60140014001E+009, +4.19619995875E-002, -2.71959466371E-002
+4.60142014201E+009, +4.16514983924E-002, -2.74997098817E-002
+4.60144014401E+009, +4.15390955385E-002, -2.78142540796E-002
+4.60146014601E+009, +4.13004318529E-002, -2.80114892809E-002
+4.60148014801E+009, +4.11420030271E-002, -2.83788176799E-002
+4.60150015002E+009, +4.09075928503E-002, -2.86413510527E-002
+4.60152015202E+009, +4.07527232446E-002, -2.90223861973E-002
+4.60154015402E+009, +4.05068977433E-002, -2.93182659182E-002
+4.60156015602E+009, +4.02631010984E-002, -2.96004244980E-002
+4.60158015802E+009, +4.00857746857E-002, -2.99177137264E-002
+4.60160016002E+009, +3.98973805990E-002, -3.00947629602E-002
+4.60162016202E+009, +3.96681118832E-002, -3.05252184174E-002
+4.60164016402E+009, +3.94349424620E-002, -3.07586208234E-002
+4.60166016602E+009, +3.91928639023E-002, -3.09626336387E-002
+4.60168016802E+009, +3.89223859176E-002, -3.13214031950E-002
+4.60170017002E+009, +3.88125083190E-002, -3.14668487698E-002
+4.60172017202E+009, +3.84675257271E-002, -3.17886256564E-002
+4.60174017402E+009, +3.82560175281E-002, -3.21719670174E-002
+4.60176017602E+009, +3.80519962942E-002, -3.23659362808E-002
+4.60178017802E+009, +3.78000941338E-002, -3.27338270862E-002
+4.60180018002E+009, +3.75974455000E-002, -3.29772784829E-002
+4.60182018202E+009, +3.73497432072E-002, -3.32594485985E-002
+4.60184018402E+009, +3.71515597004E-002, -3.33998412746E-002
+4.60186018602E+009, +3.68423245494E-002, -3.37849667392E-002
+4.60188018802E+009, +3.66682805463E-002, -3.41210481252E-002
+4.60190019002E+009, +3.63977068147E-002, -3.42958200603E-002
+4.60192019202E+009, +3.61539720634E-002, -3.44609302679E-002
+4.60194019402E+009, +3.57931356667E-002, -3.48853591275E-002
+4.60196019602E+009, +3.56552584848E-002, -3.50742543903E-002
+4.60198019802E+009, +3.53556317641E-002, -3.53179723121E-002
+4.60200020002E+009, +3.51265743468E-002, -3.56441886124E-002
+4.60202020202E+009, +3.48853312093E-002, -3.58405779314E-002
+4.60204020402E+009, +3.45750897637E-002, -3.60309412738E-002
+4.60206020602E+009, +3.43172563192E-002, -3.63732971382E-002
+4.60208020802E+009, +3.40531692038E-002, -3.65849411601E-002
+4.60210021002E+009, +3.38132796291E-002, -3.68112252333E-002
+4.60212021202E+009, +3.34994116108E-002, -3.70980721651E-002
+4.60214021402E+009, +3.33096808005E-002, -3.73445542302E-002
+4.60216021602E+009, +3.30482466463E-002, -3.75665002822E-002
+4.60218021802E+009, +3.27072497793E-002, -3.77464282744E-002
+4.60220022002E+009, +3.25152390523E-002, -3.80291136314E-002
+4.60222022202E+009, +3.22064270875E-002, -3.82388370214E-002
+4.60224022402E+009, +3.19396828593E-002, -3.84393088407E-002
+4.60226022602E+009, +3.16187440911E-002, -3.87467963884E-002
+4.60228022802E+009, +3.13821940223E-002, -3.89169935770E-002
+4.60230023002E+009, +3.10832849663E-002, -3.92027052663E-002
+4.60232023202E+009, +3.07567044169E-002, -3.93637220284E-002
+4.60234023402E+009, +3.04783198791E-002, -3.96940162168E-002
+4.60236023602E+009, +3.01644581439E-002, -3.99109463635E-002
+4.60238023802E+009, +2.99042440422E-002, -3.99931232636E-002
+4.60240024002E+009, +2.95603341140E-002, -4.02948369145E-002
+4.60242024202E+009, +2.94140228382E-002, -4.05328613889E-002
+4.60244024402E+009, +2.90532364121E-002, -4.07404110922E-002
+4.60246024602E+009, +2.86514938847E-002, -4.09218431708E-002
+4.60248024802E+009, +2.83434175922E-002, -4.10792786132E-002
+4.60250025003E+009, +2.80915448767E-002, -4.13031967941E-002
+4.60252025203E+009, +2.78811779454E-002, -4.15523356506E-002
+4.60254025403E+009, +2.75479640116E-002, -4.16863503488E-002
+4.60256025603E+009, +2.72458152469E-002, -4.19397626665E-002
+4.60258025803E+009, +2.69755314032E-002, -4.22001163260E-002
+4.60260026003E+009, +2.66638457246E-002, -4.22935821288E-002
+4.60262026203E+009, +2.63372686880E-002, -4.24764462504E-002
+4.60264026403E+009, +2.60193370285E-002, -4.27228906311E-002
+4.60266026603E+009, +2.57846530099E-002, -4.28057867472E-002
+4.60268026803E+009, +2.54467121434E-002, -4.30431214768E-002
+4.60270027003E+009, +2.51178321328E-002, -4.32566805425E-002
+4.60272027203E+009, +2.47508653574E-002, -4.35000016910E-002
+4.60274027403E+009, +2.44737254740E-002, -4.35790705507E-002
+4.60276027603E+009, +2.42020826744E-002, -4.37990097328E-002
+4.60278027803E+009, +2.38182625664E-002, -4.39760426852E-002
+4.60280028003E+009, +2.35595464360E-002, -4.42461994168E-002
+4.60282028203E+009, +2.32542534498E-002, -4.43392739593E-002
+4.60284028403E+009, +2.29029267253E-002, -4.44628848263E-002
+4.60286028603E+009, +2.26012873467E-002, -4.46825238105E-002
+4.60288028803E+009, +2.23293365909E-002, -4.47167087196E-002
+4.60290029003E+009, +2.18679969017E-002, -4.49822017389E-002
+4.60292029203E+009, +2.16692788690E-002, -4.51911462245E-002
+4.60294029403E+009, +2.12419918669E-002, -4.52929070178E-002
+4.60296029603E+009, +2.09792277055E-002, -4.54520741226E-002
+4.60298029803E+009, +2.05757675896E-002, -4.55692639571E-002
+4.60300030003E+009, +2.03155973771E-002, -4.57288643542E-002
+4.60302030203E+009, +1.99442213782E-002, -4.59168651981E-002
+4.60304030403E+009, +1.96717073470E-002, -4.61178696770E-002
+4.60306030603E+009, +1.93983540605E-002, -4.61716789809E-002
+4.60308030803E+009, +1.89710275937E-002, -4.63124540880E-002
+4.60310031003E+009, +1.86539518585E-002, -4.64078321387E-002
+4.60312031203E+009, +1.83009509710E-002, -4.65320755473E-002
+4.60314031403E+009, +1.79662955509E-002, -4.66479482442E-002
+4.60316031603E+009, +1.75498899395E-002, -4.67947574411E-002
+4.60318031803E+009, +1.72815252878E-002, -4.69761268205E-002
+4.60320032003E+009, +1.69393465941E-002, -4.70893155760E-002
+4.60322032203E+009, +1.65412015174E-002, -4.72410960986E-002
+4.60324032403E+009, +1.62756804507E-002, -4.73131695776E-002
+4.60326032603E+009, +1.59743529068E-002, -4.74635765912E-002
+4.60328032803E+009, +1.55263311911E-002, -4.75900558642E-002
+4.60330033003E+009, +1.53002916289E-002, -4.76334546234E-002
+4.60332033203E+009, +1.48467681942E-002, -4.77496166394E-002
+4.60334033403E+009, +1.45404483015E-002, -4.78774961062E-002
+4.60336033603E+009, +1.41412510984E-002, -4.79828283394E-002
+4.60338033803E+009, +1.38458368857E-002, -4.80960289917E-002
+4.60340034003E+009, +1.34802903998E-002, -4.81614279082E-002
+4.60342034203E+009, +1.31338006150E-002, -4.82221834964E-002
+4.60344034403E+009, +1.27804422637E-002, -4.83707393816E-002
+4.60346034603E+009, +1.24407628402E-002, -4.84291307805E-002
+4.60348034803E+009, +1.20780644615E-002, -4.85948103938E-002
+4.60350035004E+009, +1.17738724249E-002, -4.86531908243E-002
+4.60352035204E+009, +1.13609144514E-002, -4.87498867546E-002
+4.60354035404E+009, +1.10131454974E-002, -4.88850383100E-002
+4.60356035604E+009, +1.06767512022E-002, -4.89161807809E-002
+4.60358035804E+009, +1.03421513129E-002, -4.89386774197E-002
+4.60360036004E+009, +9.93813297482E-003, -4.90787101818E-002
+4.60362036204E+009, +9.69889526365E-003, -4.91418352752E-002
+4.60364036404E+009, +9.37235953636E-003, -4.92252743862E-002
+4.60366036604E+009, +8.90510566950E-003, -4.92308873986E-002
+4.60368036804E+009, +8.59263552556E-003, -4.93291134700E-002
+4.60370037004E+009, +8.18112934858E-003, -4.93958585683E-002
+4.60372037204E+009, +7.83551347869E-003, -4.94553264737E-002
+4.60374037404E+009, +7.49771306881E-003, -4.94906142439E-002
+4.60376037604E+009, +7.14410734905E-003, -4.95228444213E-002
+4.60378037804E+009, +6.71544502200E-003, -4.95816045994E-002
+4.60380038004E+009, +6.42529176010E-003, -4.97076818442E-002
+4.60382038204E+009, +6.05287075282E-003, -4.97841907621E-002
+4.60384038404E+009, +5.65428527239E-003, -4.97969717140E-002
+4.60386038604E+009, +5.35248761373E-003, -4.98127867120E-002
+4.60388038804E+009, +4.97005600930E-003, -4.98214587783E-002
+4.60390039004E+009, +4.63914300831E-003, -4.99096013367E-002
+4.60392039204E+009, +4.22116652319E-003, -4.98760324094E-002
+4.60394039404E+009, +3.84099611843E-003, -4.99587907121E-002
+4.60396039604E+009, +3.54591239180E-003, -4.99269334690E-002
+4.60398039804E+009, +3.18727405934E-003, -4.99477285111E-002
+4.60400040004E+009, +2.79217421574E-003, -5.00400221022E-002
+4.60402040204E+009, +2.43616379625E-003, -4.99579762795E-002
+4.60404040404E+009, +2.12964955722E-003, -4.99677670535E-002
+4.60406040604E+009, +1.67721774552E-003, -5.00701131841E-002
+4.60408040804E+009, +1.42383807203E-003, -5.00709617525E-002
+4.60410041004E+009, +9.66448367456E-004, -5.00480221878E-002
+4.60412041204E+009, +6.26759122513E-004, -5.00462096561E-002
+4.60414041404E+009, +2.52713723325E-004, -5.00447777587E-002
+4.60416041604E+009, -4.04519282883E-005, -5.00934882765E-002
+4.60418041804E+009, -4.26052444306E-004, -5.00651357236E-002
+4.60420042004E+009, -8.40661457934E-004, -5.01525823500E-002
+4.60422042204E+009, -1.11718615677E-003, -5.00191046688E-002
+4.60424042404E+009, -1.48369827525E-003, -5.01002651647E-002
+4.60426042604E+009, -1.85688910401E-003, -5.00483366063E-002
+4.60428042804E+009, -2.26280464895E-003, -5.00372514157E-002
+4.60430043004E+009, -2.66366085833E-003, -5.00702730696E-002
+4.60432043204E+009, -2.93262767232E-003, -5.00379647888E-002
+4.60434043404E+009, -3.37951429031E-003, -4.99734935802E-002
+4.60436043604E+009, -3.73960573633E-003, -4.99967786775E-002
+4.60438043804E+009, -4.05318847857E-003, -4.99402288889E-002
+4.60440044004E+009, -4.43854156943E-003, -4.98951035426E-002
+4.60442044204E+009, -4.79255737029E-003, -4.98666705049E-002
+4.60444044404E+009, -5.18945263603E-003, -4.97952812549E-002
+4.60446044604E+009, -5.60522029262E-003, -4.97501665069E-002
+4.60448044804E+009, -5.94058025102E-003, -4.97486307806E-002
+4.60450045005E+009, -6.23423078811E-003, -4.96946801722E-002
+4.60452045205E+009, -6.63607236559E-003, -4.96898250855E-002
+4.60454045405E+009, -7.00449543988E-003, -4.96426079432E-002
+4.60456045605E+009, -7.34403633135E-003, -4.95467835907E-002
+4.60458045805E+009, -7.67581237874E-003, -4.94900492802E-002
+4.60460046005E+009, -8.03586843991E-003, -4.94156261742E-002
+4.60462046205E+009, -8.37872472073E-003, -4.94215900547E-002
+4.60464046405E+009, -8.79290828396E-003, -4.93250813652E-002
+4.60466046605E+009, -9.11297450224E-003, -4.92556951522E-002
+4.60468046805E+009, -9.40784071041E-003, -4.91590662855E-002
+4.60470047005E+009, -9.81955534708E-003, -4.90764030955E-002
+4.60472047205E+009, -1.01404691461E-002, -4.90382479059E-002
+4.60474047405E+009, -1.05106790172E-002, -4.89722876478E-002
+4.60476047605E+009, -1.08288490344E-002, -4.88859137544E-002
+4.60478047805E+009, -1.12621431185E-002, -4.88416006419E-002
+4.60480048005E+009, -1.16035045025E-002, -4.87023140119E-002
+4.60482048205E+009, -1.18953030960E-002, -4.86879008878E-002
+4.60484048405E+009, -1.22644676490E-002, -4.85820048137E-002
+4.60486048605E+009, -1.26597293161E-002, -4.85046535823E-002
+4.60488048805E+009, -1.28740836062E-002, -4.83583505800E-002
+4.60490049005E+009, -1.33595631860E-002, -4.83141107270E-002
+4.60492049205E+009, -1.36318899100E-002, -4.81663820671E-002
+4.60494049405E+009, -1.40517442686E-002, -4.81360331993E-002
+4.60496049605E+009, -1.42778098381E-002, -4.80388792135E-002
+4.60498049805E+009, -1.47404339855E-002, -4.78443295335E-002
+4.60500050005E+009, -1.50505980435E-002, -4.77347027122E-002
+4.60502050205E+009, -1.54474552263E-002, -4.76887877256E-002
+4.60504050405E+009, -1.57063958128E-002, -4.76212106717E-002
+4.60506050605E+009, -1.61241345503E-002, -4.74254119485E-002
+4.60508050805E+009, -1.64214779374E-002, -4.72723568172E-002
+4.60510051005E+009, -1.68044899812E-002, -4.71753558499E-002
+4.60512051205E+009, -1.71755955504E-002, -4.70589976051E-002
+4.60514051405E+009, -1.75404338877E-002, -4.69400110122E-002
+4.60516051605E+009, -1.77519574391E-002, -4.68306871452E-002
+4.60518051805E+009, -1.81752194387E-002, -4.67302051465E-002
+4.60520052005E+009, -1.84059293183E-002, -4.66358453325E-002
+4.60522052205E+009, -1.88596297627E-002, -4.64410011429E-002
+4.60524052405E+009, -1.91620207579E-002, -4.64376500384E-002
+4.60526052605E+009, -1.95429081679E-002, -4.62098043213E-002
+4.60528052805E+009, -1.98585140088E-002, -4.60359006409E-002
+4.60530053005E+009, -2.01534020466E-002, -4.58596905619E-002
+4.60532053205E+009, -2.05199728850E-002, -4.57557881963E-002
+4.60534053405E+009, -2.08429391547E-002, -4.55718560727E-002
+4.60536053605E+009, -2.11915982155E-002, -4.54472366276E-002
+4.60538053805E+009, -2.15243210337E-002, -4.53276045092E-002
+4.60540054005E+009, -2.17997906439E-002, -4.51350671532E-002
+4.60542054205E+009, -2.20832898479E-002, -4.49864752105E-002
+4.60544054405E+009, -2.24285413334E-002, -4.48162878186E-002
+4.60546054605E+009, -2.27619462025E-002, -4.46710892544E-002
+4.60548054805E+009, -2.31132218436E-002, -4.45275435605E-002
+4.60550055006E+009, -2.33675196056E-002, -4.43341889072E-002
+4.60552055206E+009, -2.37293643228E-002, -4.41606748821E-002
+4.60554055406E+009, -2.41814264392E-002, -4.39984804565E-002
+4.60556055606E+009, -2.44021050149E-002, -4.38686617486E-002
+4.60558055806E+009, -2.46649982755E-002, -4.37094853051E-002
+4.60560056006E+009, -2.50321952344E-002, -4.34287640972E-002
+4.60562056206E+009, -2.53421960482E-002, -4.31939781585E-002
+4.60564056406E+009, -2.57085017316E-002, -4.30706307141E-002
+4.60566056606E+009, -2.59384043392E-002, -4.28909922669E-002
+4.60568056806E+009, -2.62880155663E-002, -4.26783968133E-002
+4.60570057006E+009, -2.66335331557E-002, -4.24682093023E-002
+4.60572057206E+009, -2.69943748620E-002, -4.23668950269E-002
+4.60574057406E+009, -2.71149797226E-002, -4.21441752339E-002
+4.60576057606E+009, -2.74618544125E-002, -4.19643710129E-002
+4.60578057806E+009, -2.77948946705E-002, -4.17748610146E-002
+4.60580058006E+009, -2.80945552346E-002, -4.15108711093E-002
+4.60582058206E+009, -2.84064416537E-002, -4.13260154342E-002
+4.60584058406E+009, -2.86741188846E-002, -4.11764321410E-002
+4.60586058606E+009, -2.89949608727E-002, -4.09119454980E-002
+4.60588058806E+009, -2.92605696907E-002, -4.06655293044E-002
+4.60590059006E+009, -2.96080179756E-002, -4.05738240068E-002
+4.60592059206E+009, -2.98004217336E-002, -4.02890314168E-002
+4.60594059406E+009, -3.01126348666E-002, -4.00391066131E-002
+4.60596059606E+009, -3.05413532511E-002, -3.97552138390E-002
+4.60598059806E+009, -3.07583494692E-002, -3.96571659389E-002
+4.60600060006E+009, -3.09381842310E-002, -3.93935789772E-002
+4.60602060206E+009, -3.12721151515E-002, -3.91952319027E-002
+4.60604060406E+009, -3.15982617146E-002, -3.88862294212E-002
+4.60606060606E+009, -3.18746090384E-002, -3.87085672558E-002
+4.60608060806E+009, -3.22276887169E-002, -3.84315494215E-002
+4.60610061006E+009, -3.24173105168E-002, -3.83176346162E-002
+4.60612061206E+009, -3.27205344193E-002, -3.79727939542E-002
+4.60614061406E+009, -3.30120348082E-002, -3.77557098585E-002
+4.60616061606E+009, -3.32695157993E-002, -3.75103154158E-002
+4.60618061806E+009, -3.35832932891E-002, -3.73122226612E-002
+4.60620062006E+009, -3.37772687948E-002, -3.70741537682E-002
+4.60622062206E+009, -3.41591151862E-002, -3.67320479628E-002
+4.60624062406E+009, -3.43133795665E-002, -3.65600803048E-002
+4.60626062606E+009, -3.45935973684E-002, -3.63201527369E-002
+4.60628062806E+009, -3.48986042682E-002, -3.61166038178E-002
+4.60630063006E+009, -3.51309510772E-002, -3.58115987060E-002
