"# Channel 1"
"# Trace 1"
Frequency, Formatted Data, Formatted Data
+4.20000000000E+009, +5.46736022094E-002, -2.64827238392E-002
+4.20002000200E+009, +5.44759598321E-002, -2.68512482777E-002
+4.20004000400E+009, +5.42929245904E-002, -2.72447573502E-002
+4.20006000600E+009, +5.40956250404E-002, -2.76408484364E-002
+4.20008000800E+009, +5.38569505507E-002, -2.80397886389E-002
+4.20010001000E+009, +5.36710751608E-002, -2.84148653571E-002
+4.20012001200E+009, +5.34877856786E-002, -2.88037277705E-002
+4.20014001400E+009, +5.32661381790E-002, -2.91911454660E-002
+4.20016001600E+009, +5.30369452284E-002, -2.95391329068E-002
+4.20018001800E+009, +5.28282991503E-002, -2.99446267889E-002
+4.20020002000E+009, +5.26146677949E-002, -3.03241530365E-002
+4.20022002200E+009, +5.23739940894E-002, -3.06762234053E-002
+4.20024002400E+009, +5.21342493814E-002, -3.10571514093E-002
+4.20026002600E+009, +5.19207688305E-002, -3.14518614660E-002
+4.20028002800E+009, +5.16812574724E-002, -3.18401552213E-002
+4.20030003000E+009, +5.14736200252E-002, -3.22132138638E-002
+4.20032003200E+009, +5.12500034086E-002, -3.25581458561E-002
+4.20034003400E+009, +5.09689225294E-002, -3.29313743128E-002
+4.20036003600E+009, +5.07358210060E-002, -3.32559213432E-002
+4.20038003800E+009, +5.05234286523E-002, -3.36575869234E-002
+4.20040004000E+009, +5.02558512513E-002, -3.40176935535E-002
+4.20042004200E+009, +5.00284425228E-002, -3.43690381502E-002
+4.20044004400E+009, +4.97574543068E-002, -3.47480393478E-002
+4.20046004600E+009, +4.94993877916E-002, -3.50942066075E-002
+4.20048004800E+009, +4.92400884762E-002, -3.54147981491E-002
+4.20050005001E+009, +4.89945186908E-002, -3.57639862129E-002
+4.20052005201E+009, +4.87294975895E-002, -3.61417718954E-002
+4.20054005401E+009, +4.85026579350E-002, -3.64838767484E-002
+4.20056005601E+009, +4.82057452492E-002, -3.68354901742E-002
+4.20058005801E+009, +4.79313435411E-002, -3.71613925456E-002
+4.20060006001E+009, +4.76519422621E-002, -3.75057063795E-002
+4.20062006201E+009, +4.73900407338E-002, -3.78360204481E-002
+4.20064006401E+009, +4.71037230803E-002, -3.81810516877E-002
+4.20066006601E+009, +4.68443725572E-002, -3.85533579202E-002
+4.20068006801E+009, +4.65221303338E-002, -3.88613566100E-002
+4.20070007001E+009, +4.62733484985E-002, -3.91783133716E-002
+4.20072007201E+009, +4.60002562550E-002, -3.95325600454E-002
+4.20074007401E+009, +4.57004994487E-002, -3.98564879982E-002
+4.20076007601E+009, +4.54067678648E-002, -4.01683700760E-002
+4.20078007801E+009, +4.50945720564E-002, -4.04855682308E-002
+4.20080008001E+009, +4.48101735161E-002, -4.08127188723E-002
+4.20082008201E+009, +4.45135282566E-002, -4.11350073927E-002
+4.20084008401E+009, +4.42136250225E-002, -4.14787108271E-002
+4.20086008601E+009, +4.39242310999E-002, -4.17830951356E-002
+4.20088008801E+009, +4.35980270027E-002, -4.20639714398E-002
+4.20090009001E+009, +4.33421581677E-002, -4.23768693457E-002
+4.20092009201E+009, +4.29877579180E-002, -4.26900308959E-002
+4.20094009401E+009, +4.26944966773E-002, -4.30239347681E-002
+4.20096009601E+009, +4.23747188422E-002, -4.33114431281E-002
+4.20098009801E+009, +4.20727098787E-002, -4.36145926396E-002
+4.20100010001E+009, +4.17522323482E-002, -4.39042815581E-002
+4.20102010201E+009, +4.14103331372E-002, -4.41976257185E-002
+4.20104010401E+009, +4.10976489186E-002, -4.44958416912E-002
+4.20106010601E+009, +4.07699822783E-002, -4.48073028731E-002
+4.20108010801E+009, +4.04599122259E-002, -4.50928980494E-002
+4.20110011001E+009, +4.01300072140E-002, -4.53944804222E-002
+4.20112011201E+009, +3.97951739797E-002, -4.56595854938E-002
+4.20114011401E+009, +3.94423013128E-002, -4.59329152059E-002
+4.20116011601E+009, +3.91582481733E-002, -4.61927556608E-002
+4.20118011801E+009, +3.87953169815E-002, -4.64923114069E-002
+4.20120012001E+009, +3.84488507466E-002, -4.67567781996E-002
+4.20122012201E+009, +3.81089532732E-002, -4.70428551841E-002
+4.20124012401E+009, +3.77753676505E-002, -4.73318296199E-002
+4.20126012601E+009, +3.74397738339E-002, -4.75870575346E-002
+4.20128012801E+009, +3.70778021902E-002, -4.78224925190E-002
+4.20130013001E+009, +3.67209823517E-002, -4.81153533297E-002
+4.20132013201E+009, +3.64046619983E-002, -4.83824768351E-002
+4.20134013401E+009, +3.60335119220E-002, -4.86421219584E-002
+4.20136013601E+009, +3.56789596605E-002, -4.89077124576E-002
+4.20138013801E+009, +3.53147782102E-002, -4.91280124143E-002
+4.20140014001E+009, +3.50016618740E-002, -4.93649225179E-002
+4.20142014201E+009, +3.46111646545E-002, -4.96366753617E-002
+4.20144014401E+009, +3.42531568320E-002, -4.98694313292E-002
+4.20146014601E+009, +3.38946307408E-002, -5.01164981450E-002
+4.20148014801E+009, +3.35215585487E-002, -5.03800955621E-002
+4.20150015002E+009, +3.31840879407E-002, -5.06118614383E-002
+4.20152015202E+009, +3.28308895692E-002, -5.08055430443E-002
+4.20154015402E+009, +3.24340935621E-002, -5.10665407291E-002
+4.20156015602E+009, +3.20840023556E-002, -5.12792486198E-002
+4.20158015802E+009, +3.16976706257E-002, -5.15152416515E-002
+4.20160016002E+009, +3.13502861378E-002, -5.17632318877E-002
+4.20162016202E+009, +3.09667798831E-002, -5.19597380763E-002
+4.20164016402E+009, +3.05679005378E-002, -5.21822294356E-002
+4.20166016602E+009, +3.02203304163E-002, -5.23902845232E-002
+4.20168016802E+009, +2.97991951858E-002, -5.26068429304E-002
+4.20170017002E+009, +2.94490062903E-002, -5.28351445079E-002
+4.20172017202E+009, +2.90627512103E-002, -5.30569819649E-002
+4.20174017402E+009, +2.86869419764E-002, -5.32298255570E-002
+4.20176017602E+009, +2.82789373798E-002, -5.34637931469E-002
+4.20178017802E+009, +2.79024535976E-002, -5.36363537022E-002
+4.20180018002E+009, +2.75113260611E-002, -5.38345054669E-002
+4.20182018202E+009, +2.71199190384E-002, -5.40383398672E-002
+4.20184018402E+009, +2.67258665563E-002, -5.42210504590E-002
+4.20186018602E+009, +2.63344543372E-002, -5.44145046269E-002
+4.20188018802E+009, +2.59518833718E-002, -5.46055352616E-002
+4.20190019002E+009, +2.55535686195E-002, -5.47789654300E-002
+4.20192019202E+009, +2.51558632009E-002, -5.49745691856E-002
+4.20194019402E+009, +2.47213041250E-002, -5.51230736167E-002
+4.20196019602E+009, +2.43678686573E-002, -5.53159684651E-002
+4.20198019802E+009, +2.39720696447E-002, -5.54812850421E-002
+4.20200020002E+009, +2.35798484314E-002, -5.56549150831E-002
+4.20202020202E+009, +2.31658540970E-002, -5.58346885404E-002
+4.20204020402E+009, +2.27630128470E-002, -5.59660504605E-002
+4.20206020602E+009, +2.23804502902E-002, -5.61226884802E-002
+4.20208020802E+009, +2.19474849038E-002, -5.62763430925E-002
+4.20210021002E+009, +2.15593205513E-002, -5.64421278472E-002
+4.20212021202E+009, +2.11403912568E-002, -5.65669435093E-002
+4.20214021402E+009, +2.07080721903E-002, -5.67476592464E-002
+4.20216021602E+009, +2.03069680028E-002, -5.69043764279E-002
+4.20218021802E+009, +1.98892021461E-002, -5.70451343947E-002
+4.20220022002E+009, +1.94733986561E-002, -5.71580339012E-002
+4.20222022202E+009, +1.90754776737E-002, -5.72858076899E-002
+4.20224022402E+009, +1.86654579546E-002, -5.74757669878E-002
+4.20226022602E+009, +1.82495856801E-002, -5.75856689079E-002
+4.20228022802E+009, +1.78419334702E-002, -5.77074445183E-002
+4.20230023002E+009, +1.73995758776E-002, -5.78359574242E-002
+4.20232023202E+009, +1.69856947522E-002, -5.79150824604E-002
+4.20234023402E+009, +1.65542176467E-002, -5.80466296063E-002
+4.20236023602E+009, +1.61584640221E-002, -5.81542098953E-002
+4.20238023802E+009, +1.57262814187E-002, -5.82988643188E-002
+4.20240024002E+009, +1.53253121750E-002, -5.83998100963E-002
+4.20242024202E+009, +1.49121269199E-002, -5.85069837368E-002
+4.20244024402E+009, +1.44767662007E-002, -5.86106925098E-002
+4.20246024602E+009, +1.40312384285E-002, -5.87122759900E-002
+4.20248024802E+009, +1.36129550436E-002, -5.88046225253E-002
+4.20250025003E+009, +1.32182559696E-002, -5.88824235356E-002
+4.20252025203E+009, +1.27801620622E-002, -5.89867974428E-002
+4.20254025403E+009, +1.23438322594E-002, -5.90619950851E-002
+4.20256025603E+009, +1.19184903747E-002, -5.91582378278E-002
+4.20258025803E+009, +1.15139869405E-002, -5.92432976181E-002
+4.20260026003E+009, +1.10814194689E-002, -5.93128631611E-002
+4.20262026203E+009, +1.06278960284E-002, -5.94003968478E-002
+4.20264026403E+009, +1.02248500673E-002, -5.94568726625E-002
+4.20266026603E+009, +9.77993660353E-003, -5.95384728463E-002
+4.20268026803E+009, +9.36704347188E-003, -5.96098831030E-002
+4.20270027003E+009, +8.91967853827E-003, -5.96664661882E-002
+4.20272027203E+009, +8.49730817331E-003, -5.97198187534E-002
+4.20274027403E+009, +8.09549219557E-003, -5.97891674409E-002
+4.20276027603E+009, +7.64615592802E-003, -5.98412900371E-002
+4.20278027803E+009, +7.20838172837E-003, -5.99054912381E-002
+4.20280028003E+009, +6.78329239404E-003, -5.99440151610E-002
+4.20282028203E+009, +6.35285657880E-003, -5.99827510818E-002
+4.20284028403E+009, +5.91070121807E-003, -6.00103336527E-002
+4.20286028603E+009, +5.47280092072E-003, -6.00657299767E-002
+4.20288028803E+009, +5.04455937168E-003, -6.00968746793E-002
+4.20290029003E+009, +4.62838150570E-003, -6.01092563950E-002
+4.20292029203E+009, +4.19334686446E-003, -6.01601402851E-002
+4.20294029403E+009, +3.72887120803E-003, -6.01915263904E-002
+4.20296029603E+009, +3.33331361236E-003, -6.01996143211E-002
+4.20298029803E+009, +2.90526684221E-003, -6.02115002691E-002
+4.20300030003E+009, +2.46129345543E-003, -6.02416695850E-002
+4.20302030203E+009, +2.05717963427E-003, -6.02490920376E-002
+4.20304030403E+009, +1.62455608254E-003, -6.02642740767E-002
+4.20306030603E+009, +1.13535719886E-003, -6.02712025425E-002
+4.20308030803E+009, +7.33949122779E-004, -6.02835902822E-002
+4.20310031003E+009, +2.91480619708E-004, -6.02756106605E-002
+4.20312031203E+009, -1.48372363313E-004, -6.02798223741E-002
+4.20314031403E+009, -5.58040931860E-004, -6.02874552158E-002
+4.20316031603E+009, -1.01263101894E-003, -6.02887109440E-002
+4.20318031803E+009, -1.43467753441E-003, -6.02556025263E-002
+4.20320032003E+009, -1.87970386457E-003, -6.02204078316E-002
+4.20322032203E+009, -2.30501275044E-003, -6.02211568336E-002
+4.20324032403E+009, -2.74244491802E-003, -6.02090636733E-002
+4.20326032603E+009, -3.18441271544E-003, -6.01597979172E-002
+4.20328032803E+009, -3.61504165501E-003, -6.01355477888E-002
+4.20330033003E+009, -4.03831682235E-003, -6.01182310801E-002
+4.20332033203E+009, -4.47250884677E-003, -6.01196463505E-002
+4.20334033403E+009, -4.91976630278E-003, -6.00599825949E-002
+4.20336033603E+009, -5.33643741868E-003, -5.99960240773E-002
+4.20338033803E+009, -5.76298577924E-003, -5.99572957373E-002
+4.20340034003E+009, -6.18372557437E-003, -5.99362357550E-002
+4.20342034203E+009, -6.61859192826E-003, -5.98626043273E-002
+4.20344034403E+009, -7.04988410314E-003, -5.98066385446E-002
+4.20346034603E+009, -7.47897982458E-003, -5.97948571544E-002
+4.20348034803E+009, -7.91777909793E-003, -5.97160117490E-002
+4.20350035004E+009, -8.33356895917E-003, -5.96319836333E-002
+4.20352035204E+009, -8.77739078231E-003, -5.96005680358E-002
+4.20354035404E+009, -9.19585483321E-003, -5.94992933769E-002
+4.20356035604E+009, -9.66128695166E-003, -5.94566280706E-002
+4.20358035804E+009, -1.00461209065E-002, -5.93716548845E-002
+4.20360036004E+009, -1.04578091713E-002, -5.92871974159E-002
+4.20362036204E+009, -1.09110090444E-002, -5.92185086757E-002
+4.20364036404E+009, -1.13511996612E-002, -5.91207791912E-002
+4.20366036604E+009, -1.17524899144E-002, -5.90209063594E-002
+4.20368036804E+009, -1.21716211380E-002, -5.89555641213E-002
+4.20370037004E+009, -1.26363127885E-002, -5.88846211834E-002
+4.20372037204E+009, -1.30340550684E-002, -5.87880138057E-002
+4.20374037404E+009, -1.34413212844E-002, -5.86745454418E-002
+4.20376037604E+009, -1.38819090601E-002, -5.85518008529E-002
+4.20378037804E+009, -1.42814225166E-002, -5.84717100497E-002
+4.20380038004E+009, -1.47124033717E-002, -5.83678466086E-002
+4.20382038204E+009, -1.51293309621E-002, -5.82735802170E-002
+4.20384038404E+009, -1.55708983582E-002, -5.81292426140E-002
+4.20386038604E+009, -1.59689361860E-002, -5.80259443642E-002
+4.20388038804E+009, -1.63615364289E-002, -5.79290437999E-002
+4.20390039004E+009, -1.68090623740E-002, -5.77741505935E-002
+4.20392039204E+009, -1.72094115457E-002, -5.76389771893E-002
+4.20394039404E+009, -1.75919382675E-002, -5.75407888850E-002
+4.20396039604E+009, -1.80215896407E-002, -5.74079088039E-002
+4.20398039804E+009, -1.84615190784E-002, -5.72941409327E-002
+4.20400040004E+009, -1.88616705558E-002, -5.71486443961E-002
+4.20402040204E+009, -1.92457919596E-002, -5.69846672580E-002
+4.20404040404E+009, -1.96535817862E-002, -5.68569237975E-002
+4.20406040604E+009, -2.00742450117E-002, -5.66947802581E-002
+4.20408040804E+009, -2.04883835843E-002, -5.65494330673E-002
+4.20410041004E+009, -2.08981837539E-002, -5.64073114697E-002
+4.20412041204E+009, -2.13125787554E-002, -5.62654288816E-002
+4.20414041404E+009, -2.17063214423E-002, -5.60919265744E-002
+4.20416041604E+009, -2.21177830010E-002, -5.59317834510E-002
+4.20418041804E+009, -2.25031681737E-002, -5.57656076577E-002
+4.20420042004E+009, -2.28867129922E-002, -5.56130674349E-002
+4.20422042204E+009, -2.33072999983E-002, -5.54526739953E-002
+4.20424042404E+009, -2.37283937127E-002, -5.52896360203E-002
+4.20426042604E+009, -2.40798474695E-002, -5.50992231900E-002
+4.20428042804E+009, -2.44825707864E-002, -5.49144024833E-002
+4.20430043004E+009, -2.48889858190E-002, -5.47455478752E-002
+4.20432043204E+009, -2.52867907770E-002, -5.45659194701E-002
+4.20434043404E+009, -2.56795636393E-002, -5.43571604307E-002
+4.20436043604E+009, -2.60576172252E-002, -5.41926985976E-002
+4.20438043804E+009, -2.64458594541E-002, -5.40033045878E-002
+4.20440044004E+009, -2.68401661240E-002, -5.38125699736E-002
+4.20442044204E+009, -2.71916309623E-002, -5.35953065595E-002
+4.20444044404E+009, -2.75823033351E-002, -5.33994019742E-002
+4.20446044604E+009, -2.79627547746E-002, -5.32025207917E-002
+4.20448044804E+009, -2.83823076811E-002, -5.29905776085E-002
+4.20450045005E+009, -2.87716802989E-002, -5.27978722459E-002
+4.20452045205E+009, -2.91254300305E-002, -5.26096279976E-002
+4.20454045405E+009, -2.95081346036E-002, -5.23500862263E-002
+4.20456045605E+009, -2.98848193268E-002, -5.21311207365E-002
+4.20458045805E+009, -3.02486926353E-002, -5.19352871501E-002
+4.20460046005E+009, -3.06231408058E-002, -5.17211426345E-002
+4.20462046205E+009, -3.09872537729E-002, -5.14581729047E-002
+4.20464046405E+009, -3.13618029643E-002, -5.12698119580E-002
+4.20466046605E+009, -3.17143104442E-002, -5.10526414408E-002
+4.20468046805E+009, -3.20779638021E-002, -5.07929228257E-002
+4.20470047005E+009, -3.24474153626E-002, -5.05702449560E-002
+4.20472047205E+009, -3.28088916767E-002, -5.03314073165E-002
+4.20474047405E+009, -3.31961042790E-002, -5.00740261673E-002
+4.20476047605E+009, -3.35409260066E-002, -4.98720463384E-002
+4.20478047805E+009, -3.39148427702E-002, -4.96314148590E-002
+4.20480048005E+009, -3.42468695873E-002, -4.93826142368E-002
+4.20482048205E+009, -3.46206190115E-002, -4.91013832446E-002
+4.20484048405E+009, -3.49724466591E-002, -4.88844791788E-002
+4.20486048605E+009, -3.52790814281E-002, -4.86169258269E-002
+4.20488048805E+009, -3.56530095993E-002, -4.83496395691E-002
+4.20490049005E+009, -3.59833964281E-002, -4.81021004587E-002
+4.20492049205E+009, -3.63453071982E-002, -4.78387715779E-002
+4.20494049405E+009, -3.66741365514E-002, -4.75541608830E-002
+4.20496049605E+009, -3.69987449851E-002, -4.73060966314E-002
+4.20498049805E+009, -3.73433245564E-002, -4.70235084831E-002
+4.20500050005E+009, -3.76936906113E-002, -4.67585941587E-002
+4.20502050205E+009, -3.80390075820E-002, -4.65010103416E-002
+4.20504050405E+009, -3.83311905020E-002, -4.61821196866E-002
+4.20506050605E+009, -3.87251503610E-002, -4.59291339466E-002
+4.20508050805E+009, -3.90077466800E-002, -4.56470107445E-002
+4.20510051005E+009, -3.93361220562E-002, -4.53628037520E-002
+4.20512051205E+009, -3.96681399090E-002, -4.50797133286E-002
+4.20514051405E+009, -4.00012993941E-002, -4.47891567890E-002
+4.20516051605E+009, -4.03235124238E-002, -4.45100943066E-002
+4.20518051805E+009, -4.06470262299E-002, -4.42291984545E-002
+4.20520052005E+009, -4.09484322799E-002, -4.39096199375E-002
+4.20522052205E+009, -4.12563425879E-002, -4.36081524636E-002
+4.20524052405E+009, -4.15715244733E-002, -4.33012927651E-002
+4.20526052605E+009, -4.18510602301E-002, -4.30068383642E-002
+4.20528052805E+009, -4.21783791431E-002, -4.27196177063E-002
+4.20530053005E+009, -4.24692917922E-002, -4.24005645497E-002
+4.20532053205E+009, -4.27930796734E-002, -4.21159607330E-002
+4.20534053405E+009, -4.30862420003E-002, -4.18017719554E-002
+4.20536053605E+009, -4.33895888925E-002, -4.14551848043E-002
+4.20538053805E+009, -4.36558254813E-002, -4.11542521846E-002
+4.20540054005E+009, -4.39839615946E-002, -4.08642437625E-002
+4.20542054205E+009, -4.42832063868E-002, -4.05354613062E-002
+4.20544054405E+009, -4.45567706441E-002, -4.01849986887E-002
+4.20546054605E+009, -4.48324854837E-002, -3.98626215577E-002
+4.20548054805E+009, -4.51477649041E-002, -3.95693209270E-002
+4.20550055006E+009, -4.53903205203E-002, -3.92130372166E-002
+4.20552055206E+009, -4.56711053238E-002, -3.89009231783E-002
+4.20554055406E+009, -4.59625938889E-002, -3.85652025065E-002
+4.20556055606E+009, -4.62486591859E-002, -3.82313656609E-002
+4.20558055806E+009, -4.65466982269E-002, -3.79101277426E-002
+4.20560056006E+009, -4.67658551020E-002, -3.75425553034E-002
+4.20562056206E+009, -4.70553779465E-002, -3.72083113099E-002
+4.20564056406E+009, -4.73125453225E-002, -3.68805469042E-002
+4.20566056606E+009, -4.75786064967E-002, -3.65512565607E-002
+4.20568056806E+009, -4.78803373480E-002, -3.62026403651E-002
+4.20570057006E+009, -4.81097780655E-002, -3.58522613262E-002
+4.20572057206E+009, -4.83706202063E-002, -3.55204842569E-002
+4.20574057406E+009, -4.85941258585E-002, -3.51556202287E-002
+4.20576057606E+009, -4.88370751308E-002, -3.48139744021E-002
+4.20578057806E+009, -4.90918748123E-002, -3.44503068778E-002
+4.20580058006E+009, -4.93343478594E-002, -3.40593478530E-002
+4.20582058206E+009, -4.96033861443E-002, -3.37202354391E-002
+4.20584058406E+009, -4.98294627774E-002, -3.33846076762E-002
+4.20586058606E+009, -5.00598556481E-002, -3.30166903009E-002
+4.20588058806E+009, -5.02882866020E-002, -3.26423702635E-002
+4.20590059006E+009, -5.05345095265E-002, -3.23139903573E-002
+4.20592059206E+009, -5.07763579537E-002, -3.19193190340E-002
+4.20594059406E+009, -5.10033218620E-002, -3.15609904996E-002
+4.20596059606E+009, -5.12207811977E-002, -3.11770830459E-002
+4.20598059806E+009, -5.14090033500E-002, -3.08084922751E-002
+4.20600060006E+009, -5.16584699097E-002, -3.04553638389E-002
+4.20602060206E+009, -5.18849007748E-002, -3.00844429944E-002
+4.20604060406E+009, -5.21163051530E-002, -2.96805495898E-002
+4.20606060606E+009, -5.22882931698E-002, -2.93288062821E-002
+4.20608060806E+009, -5.25026108165E-002, -2.89340111076E-002
+4.20610061006E+009, -5.27108399268E-002, -2.85767219662E-002
+4.20612061206E+009, -5.29202027858E-002, -2.82008976168E-002
+4.20614061406E+009, -5.30849695739E-002, -2.78053264332E-002
+4.20616061606E+009, -5.33287423762E-002, -2.74102677306E-002
+4.20618061806E+009, -5.35031147146E-002, -2.70394848291E-002
+4.20620062006E+009, -5.37029843170E-002, -2.66525430048E-002
+4.20622062206E+009, -5.38788990338E-002, -2.62752159018E-002
+4.20624062406E+009, -5.40747321766E-002, -2.58691645074E-002
+4.20626062606E+009, -5.42316138098E-002, -2.54975510954E-002
+4.20628062806E+009, -5.44621243227E-002, -2.50703177883E-002
+4.20630063006E+009, -5.45930429410E-002, -2.46952268020E-002
