"# Channel 1"
"# Trace 1"
Frequency, Formatted Data, Formatted Data
+4.00000000000E+009, -7.57098876753E-002, +2.27001702290E-002
+4.00010001000E+009, -7.47445749557E-002, +2.54042191446E-002
+4.00020002000E+009, -7.38195463631E-002, +2.81171839804E-002
+4.00030003000E+009, -7.28649078567E-002, +3.08384189998E-002
+4.00040004000E+009, -7.15898135419E-002, +3.34219991776E-002
+4.00050005001E+009, -7.04666194039E-002, +3.60379069794E-002
+4.00060006001E+009, -6.90944322243E-002, +3.84831524068E-002
+4.00070007001E+009, -6.76185300925E-002, +4.08963393932E-002
+4.00080008001E+009, -6.61124972389E-002, +4.34233747883E-002
+4.00090009001E+009, -6.45207155184E-002, +4.57147847210E-002
+4.00100010001E+009, -6.28047607305E-002, +4.80640506632E-002
+4.00110011001E+009, -6.10008882136E-002, +5.03546078744E-002
+4.00120012001E+009, -5.92503081669E-002, +5.25145185630E-002
+4.00130013001E+009, -5.72286547282E-002, +5.46343877709E-002
+4.00140014001E+009, -5.51948320619E-002, +5.67050359618E-002
+4.00150015002E+009, -5.32416292646E-002, +5.86300673530E-002
+4.00160016002E+009, -5.10610642993E-002, +6.04061332558E-002
+4.00170017002E+009, -4.89144525072E-002, +6.23052634416E-002
+4.00180018002E+009, -4.65577597090E-002, +6.40820444466E-002
+4.00190019002E+009, -4.40899631797E-002, +6.56080197403E-002
+4.00200020002E+009, -4.17533936655E-002, +6.71716309918E-002
+4.00210021002E+009, -3.93579934823E-002, +6.87674437650E-002
+4.00220022002E+009, -3.68041987914E-002, +7.01348089109E-002
+4.00230023002E+009, -3.43083458044E-002, +7.14432033243E-002
+4.00240024002E+009, -3.16229502058E-002, +7.26366562248E-002
+4.00250025003E+009, -2.89475365279E-002, +7.37233849033E-002
+4.00260026003E+009, -2.63876379945E-002, +7.47001266527E-002
+4.00270027003E+009, -2.36094150873E-002, +7.56613015186E-002
+4.00280028003E+009, -2.08733739492E-002, +7.63028372131E-002
+4.00290029003E+009, -1.81621798552E-002, +7.71016494429E-002
+4.00300030003E+009, -1.53018937708E-002, +7.78131295040E-002
+4.00310031003E+009, -1.24504111668E-002, +7.82977885120E-002
+4.00320032003E+009, -9.61087248843E-003, +7.87193404848E-002
+4.00330033003E+009, -6.80436658154E-003, +7.90462160034E-002
+4.00340034003E+009, -3.82317899329E-003, +7.92042147263E-002
+4.00350035004E+009, -1.07396841947E-003, +7.92724812187E-002
+4.00360036004E+009, +1.85166032596E-003, +7.93110176072E-002
+4.00370037004E+009, +4.64846939526E-003, +7.91567017574E-002
+4.00380038004E+009, +7.51183791694E-003, +7.89260416630E-002
+4.00390039004E+009, +1.04654001179E-002, +7.87224889818E-002
+4.00400040004E+009, +1.33225562525E-002, +7.82746387256E-002
+4.00410041004E+009, +1.61499318294E-002, +7.77339479728E-002
+4.00420042004E+009, +1.88861853637E-002, +7.71339558411E-002
+4.00430043004E+009, +2.16791678200E-002, +7.63675383386E-002
+4.00440044004E+009, +2.44947539050E-002, +7.55315541159E-002
+4.00450045005E+009, +2.71670452972E-002, +7.46457760118E-002
+4.00460046005E+009, +2.99843179663E-002, +7.36431373024E-002
+4.00470047005E+009, +3.25486350950E-002, +7.24160312920E-002
+4.00480048005E+009, +3.51569533710E-002, +7.12215563451E-002
+4.00490049005E+009, +3.76927415464E-002, +6.98632934780E-002
+4.00500050005E+009, +4.02304969303E-002, +6.84784579519E-002
+4.00510051005E+009, +4.26336844656E-002, +6.70182514809E-002
+4.00520052005E+009, +4.51144610429E-002, +6.54181284566E-002
+4.00530053005E+009, +4.74159420551E-002, +6.36237267079E-002
+4.00540054005E+009, +4.95938600452E-002, +6.19825540913E-002
+4.00550055006E+009, +5.18512927321E-002, +6.01124533155E-002
+4.00560056006E+009, +5.41159414064E-002, +5.82499560427E-002
+4.00570057006E+009, +5.61518349476E-002, +5.63036749929E-002
+4.00580058006E+009, +5.81281331494E-002, +5.41929961639E-002
+4.00590059006E+009, +6.01308623258E-002, +5.20126790800E-002
+4.00600060006E+009, +6.19986479309E-002, +4.97772207034E-002
+4.00610061006E+009, +6.36768445139E-002, +4.75564482288E-002
+4.00620062006E+009, +6.54597027540E-002, +4.51608486491E-002
+4.00630063006E+009, +6.69788463306E-002, +4.27513235855E-002
+4.00640064006E+009, +6.85696938006E-002, +4.03910829763E-002
+4.00650065007E+009, +7.00000056472E-002, +3.78283606838E-002
+4.00660066007E+009, +7.14186794264E-002, +3.53388045134E-002
+4.00670067007E+009, +7.25618551567E-002, +3.26153586330E-002
+4.00680068007E+009, +7.36590974089E-002, +3.00303019058E-002
+4.00690069007E+009, +7.47527890036E-002, +2.73258597400E-002
+4.00700070007E+009, +7.57335485681E-002, +2.45930831094E-002
+4.00710071007E+009, +7.65221580813E-002, +2.18017518278E-002
+4.00720072007E+009, +7.73201160572E-002, +1.90411451129E-002
+4.00730073007E+009, +7.79745941238E-002, +1.62942790956E-002
+4.00740074007E+009, +7.86095908551E-002, +1.34180122500E-002
+4.00750075008E+009, +7.89667333174E-002, +1.04672140377E-002
+4.00760076008E+009, +7.93050424774E-002, +7.62705562275E-003
+4.00770077008E+009, +7.95669417621E-002, +4.76286345305E-003
+4.00780078008E+009, +7.96152715367E-002, +1.78930148263E-003
+4.00790079008E+009, +7.96510223393E-002, -9.49703005668E-004
+4.00800080008E+009, +7.95439833811E-002, -3.88948229213E-003
+4.00810081008E+009, +7.94107732951E-002, -6.82018277139E-003
+4.00820082008E+009, +7.90392249890E-002, -9.67028184733E-003
+4.00830083008E+009, +7.86885909116E-002, -1.25390980706E-002
+4.00840084008E+009, +7.81932334715E-002, -1.53675504813E-002
+4.00850085009E+009, +7.76750829111E-002, -1.83164322300E-002
+4.00860086009E+009, +7.67932305239E-002, -2.09996467826E-002
+4.00870087009E+009, +7.60622672348E-002, -2.37958568074E-002
+4.00880088009E+009, +7.51087013254E-002, -2.65996824098E-002
+4.00890089009E+009, +7.41246827156E-002, -2.92790394028E-002
+4.00900090009E+009, +7.30007263894E-002, -3.20349731033E-002
+4.00910091009E+009, +7.18695438183E-002, -3.46148856178E-002
+4.00920092009E+009, +7.05146070266E-002, -3.71738432715E-002
+4.00930093009E+009, +6.90952833626E-002, -3.98077868953E-002
+4.00940094009E+009, +6.75797101091E-002, -4.22698565761E-002
+4.00950095010E+009, +6.60540671214E-002, -4.46154615618E-002
+4.00960096010E+009, +6.43763064009E-002, -4.70416869811E-002
+4.00970097010E+009, +6.26354265253E-002, -4.93050829468E-002
+4.00980098010E+009, +6.08301399495E-002, -5.17158721395E-002
+4.00990099010E+009, +5.88903523766E-002, -5.38944809720E-002
+4.01000100010E+009, +5.69138260737E-002, -5.58868342758E-002
+4.01010101010E+009, +5.48660648984E-002, -5.79213453113E-002
+4.01020102010E+009, +5.27394049920E-002, -5.99203250879E-002
+4.01030103010E+009, +5.04253139481E-002, -6.17818856688E-002
+4.01040104010E+009, +4.81558638542E-002, -6.35549368805E-002
+4.01050105011E+009, +4.58343628635E-002, -6.52638436867E-002
+4.01060106011E+009, +4.34724921447E-002, -6.69325901727E-002
+4.01070107011E+009, +4.09811658507E-002, -6.85076940686E-002
+4.01080108011E+009, +3.85383613619E-002, -6.99361763321E-002
+4.01090109011E+009, +3.58523956177E-002, -7.13071365824E-002
+4.01100110011E+009, +3.32571405132E-002, -7.25427919433E-002
+4.01110111011E+009, +3.07208676052E-002, -7.37338406812E-002
+4.01120112011E+009, +2.78904027622E-002, -7.47455412026E-002
+4.01130113011E+009, +2.51882047588E-002, -7.57522799487E-002
+4.01140114011E+009, +2.24215586614E-002, -7.65883838825E-002
+4.01150115012E+009, +1.95775454889E-002, -7.73912329029E-002
+4.01160116012E+009, +1.67273699118E-002, -7.81063304493E-002
+4.01170117012E+009, +1.39103544937E-002, -7.86460785512E-002
+4.01180118012E+009, +1.10411433434E-002, -7.90199530278E-002
+4.01190119012E+009, +8.19164692105E-003, -7.93435942192E-002
+4.01200120012E+009, +5.23157920336E-003, -7.96186778393E-002
+4.01210121012E+009, +2.30733696242E-003, -7.96695353223E-002
+4.01220122012E+009, -5.79210186531E-004, -7.97028192755E-002
+4.01230123012E+009, -3.44031039119E-003, -7.97596421055E-002
+4.01240124012E+009, -6.47327926557E-003, -7.95675942931E-002
+4.01250125013E+009, -9.28861479998E-003, -7.93020265448E-002
+4.01260126013E+009, -1.21462452797E-002, -7.88840762722E-002
+4.01270127013E+009, -1.49974176633E-002, -7.84023189496E-002
+4.01280128013E+009, -1.78051554870E-002, -7.77523768720E-002
+4.01290129013E+009, -2.06957989257E-002, -7.70430335216E-002
+4.01300130013E+009, -2.34566235631E-002, -7.62096190967E-002
+4.01310131013E+009, -2.61567873347E-002, -7.53524749908E-002
+4.01320132013E+009, -2.89539581590E-002, -7.43124196821E-002
+4.01330133013E+009, -3.16352539163E-002, -7.32244410450E-002
+4.01340134013E+009, -3.42886015548E-002, -7.20191349603E-002
+4.01350135014E+009, -3.68941654513E-002, -7.06775558881E-002
+4.01360136014E+009, -3.93822920564E-002, -6.92935492566E-002
+4.01370137014E+009, -4.19235097845E-002, -6.78084046711E-002
+4.01380138014E+009, -4.42746043798E-002, -6.62514504615E-002
+4.01390139014E+009, -4.66892638489E-002, -6.45616198601E-002
+4.01400140014E+009, -4.90555137389E-002, -6.28078819046E-002
+4.01410141014E+009, -5.13410169635E-002, -6.10363988520E-002
+4.01420142014E+009, -5.34630956993E-002, -5.91830747933E-002
+4.01430143014E+009, -5.56636896361E-002, -5.71309766440E-002
+4.01440144014E+009, -5.77158436717E-002, -5.50151433508E-002
+4.01450145015E+009, -5.95876422616E-002, -5.28723957838E-002
+4.01460146015E+009, -6.14955265883E-002, -5.06724123932E-002
+4.01470147015E+009, -6.32629790093E-002, -4.84321943764E-002
+4.01480148015E+009, -6.49346487581E-002, -4.61206060958E-002
+4.01490149015E+009, -6.65647156835E-002, -4.36783074235E-002
+4.01500150015E+009, -6.81280265519E-002, -4.11475039078E-002
+4.01510151015E+009, -6.95965661225E-002, -3.86671785008E-002
+4.01520152015E+009, -7.09084270279E-002, -3.61307199057E-002
+4.01530153015E+009, -7.22069979725E-002, -3.35140096016E-002
+4.01540154015E+009, -7.34259509456E-002, -3.08916175581E-002
+4.01550155016E+009, -7.43413464403E-002, -2.80556711028E-002
+4.01560156016E+009, -7.53616195181E-002, -2.53615671239E-002
+4.01570157016E+009, -7.62582732730E-002, -2.27259824371E-002
+4.01580158016E+009, -7.69727627419E-002, -1.99277778311E-002
+4.01590159016E+009, -7.76626355585E-002, -1.70386583222E-002
+4.01600160016E+009, -7.82212607457E-002, -1.42533118230E-002
+4.01610161016E+009, -7.87774769707E-002, -1.13983487551E-002
+4.01620162016E+009, -7.90970227216E-002, -8.58352312772E-003
+4.01630163016E+009, -7.93506656207E-002, -5.58035733471E-003
+4.01640164016E+009, -7.94697476813E-002, -2.72520017661E-003
+4.01650165017E+009, -7.94243777303E-002, +1.36351816613E-004
+4.01660166017E+009, -7.93650032569E-002, +3.08291358895E-003
+4.01670167017E+009, -7.92841802216E-002, +5.95511333329E-003
+4.01680168017E+009, -7.89425316270E-002, +8.81552667360E-003
+4.01690169017E+009, -7.85932825657E-002, +1.16822246124E-002
+4.01700170017E+009, -7.80911752302E-002, +1.46016742427E-002
+4.01710171017E+009, -7.75117366438E-002, +1.74198315382E-002
+4.01720172017E+009, -7.68281220674E-002, +2.01738809560E-002
+4.01730173017E+009, -7.59944985118E-002, +2.29321663861E-002
+4.01740174017E+009, -7.50743102831E-002, +2.57252192745E-002
+4.01750175018E+009, -7.40179476367E-002, +2.83634559790E-002
+4.01760176018E+009, -7.30385037135E-002, +3.10488415912E-002
+4.01770177018E+009, -7.18457225781E-002, +3.37210748656E-002
+4.01780178018E+009, -7.05822176389E-002, +3.63405618555E-002
+4.01790179018E+009, -6.91281122824E-002, +3.88284080195E-002
+4.01800180018E+009, -6.76652970765E-002, +4.13121519158E-002
+4.01810181018E+009, -6.60162028776E-002, +4.37008650158E-002
+4.01820182018E+009, -6.44032565401E-002, +4.61189534947E-002
+4.01830183018E+009, -6.27318236539E-002, +4.83950715988E-002
+4.01840184018E+009, -6.08992470732E-002, +5.06690568910E-002
+4.01850185019E+009, -5.91201396435E-002, +5.28571708428E-002
+4.01860186019E+009, -5.71186903520E-002, +5.49248970690E-002
+4.01870187019E+009, -5.49540939040E-002, +5.70029723974E-002
+4.01880188019E+009, -5.29258109025E-002, +5.88860309716E-002
+4.01890189019E+009, -5.06575180259E-002, +6.07534321444E-002
+4.01900190019E+009, -4.85419565161E-002, +6.25771148059E-002
+4.01910191019E+009, -4.60976664445E-002, +6.42048951338E-002
+4.01920192019E+009, -4.37846068246E-002, +6.58498925105E-002
+4.01930193019E+009, -4.13440494614E-002, +6.73627809445E-002
+4.01940194019E+009, -3.88235166966E-002, +6.89144858557E-002
+4.01950195020E+009, -3.62990203258E-002, +7.02977535821E-002
+4.01960196020E+009, -3.37271277721E-002, +7.15365602136E-002
+4.01970197020E+009, -3.10597442272E-002, +7.27116869793E-002
+4.01980198020E+009, -2.83436456929E-002, +7.37449608800E-002
+4.01990199020E+009, -2.56950047954E-002, +7.46658655041E-002
+4.02000200020E+009, -2.30496722504E-002, +7.54999136061E-002
+4.02010201020E+009, -2.02249855139E-002, +7.63169553626E-002
+4.02020202020E+009, -1.75151791645E-002, +7.70550271795E-002
+4.02030203020E+009, -1.46521548804E-002, +7.75996571967E-002
+4.02040204020E+009, -1.18102438228E-002, +7.80883238292E-002
+4.02050205021E+009, -8.95201997047E-003, +7.83859324932E-002
+4.02060206021E+009, -6.15302184496E-003, +7.86354996780E-002
+4.02070207021E+009, -3.26151988165E-003, +7.88044341648E-002
+4.02080208021E+009, -3.98763539172E-004, +7.88207642745E-002
+4.02090209021E+009, +2.53635922325E-003, +7.87208448929E-002
+4.02100210021E+009, +5.34979345577E-003, +7.85697908335E-002
+4.02110211021E+009, +8.18169716292E-003, +7.83888068218E-002
+4.02120212021E+009, +1.10816939738E-002, +7.80234418674E-002
+4.02130213021E+009, +1.38769712489E-002, +7.75049841032E-002
+4.02140214021E+009, +1.67830603151E-002, +7.69987151374E-002
+4.02150215022E+009, +1.94747495839E-002, +7.62846852345E-002
+4.02160216022E+009, +2.22513834346E-002, +7.55140645815E-002
+4.02170217022E+009, +2.49150297632E-002, +7.46174544513E-002
+4.02180218022E+009, +2.76371998967E-002, +7.36928852120E-002
+4.02190219022E+009, +3.02398587686E-002, +7.26284443498E-002
+4.02200220022E+009, +3.29521923086E-002, +7.15100476685E-002
+4.02210221022E+009, +3.54527886340E-002, +7.02586086459E-002
+4.02220222022E+009, +3.78966376720E-002, +6.88757517171E-002
+4.02230223022E+009, +4.05129267188E-002, +6.75082069604E-002
+4.02240224022E+009, +4.28566487148E-002, +6.58911455928E-002
+4.02250225023E+009, +4.51877580763E-002, +6.42600324001E-002
+4.02260226023E+009, +4.74020943050E-002, +6.25658979141E-002
+4.02270227023E+009, +4.97740071502E-002, +6.08850652892E-002
+4.02280228023E+009, +5.18637317199E-002, +5.89929886966E-002
+4.02290229023E+009, +5.40468034166E-002, +5.69539510431E-002
+4.02300230023E+009, +5.60116900964E-002, +5.50270682197E-002
+4.02310231023E+009, +5.80098748823E-002, +5.28631643263E-002
+4.02320232023E+009, +5.98018742281E-002, +5.08309336969E-002
+4.02330233023E+009, +6.15733271798E-002, +4.85568991539E-002
+4.02340234023E+009, +6.33534802259E-002, +4.63113290139E-002
+4.02350235024E+009, +6.49483865411E-002, +4.39443334273E-002
+4.02360236024E+009, +6.65894501716E-002, +4.15824733635E-002
+4.02370237024E+009, +6.79481973075E-002, +3.90463745132E-002
+4.02380238024E+009, +6.93706581461E-002, +3.66371462199E-002
+4.02390239024E+009, +7.05263284079E-002, +3.41026413605E-002
+4.02400240024E+009, +7.17477797998E-002, +3.14687560557E-002
+4.02410241024E+009, +7.27740237127E-002, +2.87950499377E-002
+4.02420242024E+009, +7.37970206588E-002, +2.61658121403E-002
+4.02430243024E+009, +7.46401647675E-002, +2.34927734629E-002
+4.02440244024E+009, +7.54375292297E-002, +2.06993678914E-002
+4.02450245025E+009, +7.62599190575E-002, +1.79860103165E-002
+4.02460246025E+009, +7.66868750922E-002, +1.51890878042E-002
+4.02470247025E+009, +7.73187321842E-002, +1.24063993831E-002
+4.02480248025E+009, +7.76084342249E-002, +9.59497247779E-003
+4.02490249025E+009, +7.79183475938E-002, +6.77122835569E-003
+4.02500250025E+009, +7.80840144717E-002, +3.97437699294E-003
+4.02510251025E+009, +7.81313748027E-002, +1.09212763104E-003
+4.02520252025E+009, +7.82023024249E-002, -1.72069480972E-003
+4.02530253025E+009, +7.79734685718E-002, -4.55605605713E-003
+4.02540254025E+009, +7.77907608241E-002, -7.38160253239E-003
+4.02550255026E+009, +7.74488881273E-002, -1.01919249560E-002
+4.02560256026E+009, +7.70298921184E-002, -1.30301003284E-002
+4.02570257026E+009, +7.64785666313E-002, -1.57983762361E-002
+4.02580258026E+009, +7.57850668639E-002, -1.85949768734E-002
+4.02590259026E+009, +7.50385991727E-002, -2.12205161036E-002
+4.02600260026E+009, +7.41718167511E-002, -2.39428384639E-002
+4.02610261026E+009, +7.33333326129E-002, -2.66613835337E-002
+4.02620262026E+009, +7.22456374095E-002, -2.92688917134E-002
+4.02630263026E+009, +7.11833434137E-002, -3.18788872795E-002
+4.02640264026E+009, +6.99678254337E-002, -3.44531878843E-002
+4.02650265027E+009, +6.86432307854E-002, -3.69475233065E-002
+4.02660266027E+009, +6.71337109606E-002, -3.93770553181E-002
+4.02670267027E+009, +6.57457428064E-002, -4.17263466057E-002
+4.02680268027E+009, +6.42063487932E-002, -4.41323091516E-002
+4.02690269027E+009, +6.24784697092E-002, -4.64566410393E-002
+4.02700270027E+009, +6.07604541555E-002, -4.87696043349E-002
+4.02710271027E+009, +5.89240190045E-002, -5.08346092629E-002
+4.02720272027E+009, +5.70111126392E-002, -5.28690916166E-002
+4.02730273027E+009, +5.50875131789E-002, -5.49677477121E-002
+4.02740274027E+009, +5.30642570248E-002, -5.69327803874E-002
+4.02750275028E+009, +5.09867555852E-002, -5.87594850196E-002
+4.02760276028E+009, +4.88019600846E-002, -6.05195113467E-002
+4.02770277028E+009, +4.66172797033E-002, -6.22867255562E-002
+4.02780278028E+009, +4.41935464643E-002, -6.39903611867E-002
+4.02790279028E+009, +4.18648554256E-002, -6.54818524351E-002
+4.02800280028E+009, +3.94224221352E-002, -6.69061720617E-002
+4.02810281028E+009, +3.69991480484E-002, -6.83260354575E-002
+4.02820282028E+009, +3.44454694442E-002, -6.96318551399E-002
+4.02830283028E+009, +3.19764035189E-002, -7.07579534766E-002
+4.02840284028E+009, +2.92887190149E-002, -7.18826183873E-002
+4.02850285029E+009, +2.66604271736E-002, -7.28498479085E-002
+4.02860286029E+009, +2.40815783856E-002, -7.37783093357E-002
+4.02870287029E+009, +2.13561516667E-002, -7.45741643218E-002
+4.02880288029E+009, +1.85953994820E-002, -7.53293257338E-002
+4.02890289029E+009, +1.58862726970E-002, -7.58567645633E-002
+4.02900290029E+009, +1.31389436497E-002, -7.64345039922E-002
+4.02910291029E+009, +1.02953683169E-002, -7.69388934677E-002
+4.02920292029E+009, +7.51656931093E-003, -7.70476031219E-002
+4.02930293029E+009, +4.66790496806E-003, -7.73585545063E-002
+4.02940294029E+009, +1.91650161495E-003, -7.74524010089E-002
+4.02950295030E+009, -9.14578157337E-004, -7.75329023934E-002
+4.02960296030E+009, -3.72563598211E-003, -7.73304462584E-002
+4.02970297030E+009, -6.58445827966E-003, -7.71409698231E-002
+4.02980298030E+009, -9.32857837664E-003, -7.68422702802E-002
+4.02990299030E+009, -1.21360472549E-002, -7.64201353544E-002
+4.03000300030E+009, -1.48427895741E-002, -7.58429618179E-002
+4.03010301030E+009, -1.76761670767E-002, -7.52943632084E-002
+4.03020302030E+009, -2.03541062749E-002, -7.45876901772E-002
+4.03030303030E+009, -2.30014169209E-002, -7.37538065442E-002
+4.03040304030E+009, -2.56883749798E-002, -7.28045145049E-002
+4.03050305031E+009, -2.82622634639E-002, -7.18724115952E-002
+4.03060306031E+009, -3.09423540340E-002, -7.08382635878E-002
+4.03070307031E+009, -3.35065810122E-002, -6.95671446866E-002
+4.03080308031E+009, -3.59251334858E-002, -6.83364041311E-002
+4.03090309031E+009, -3.83291224914E-002, -6.69366348483E-002
+4.03100310031E+009, -4.08749827046E-002, -6.55311899091E-002
+4.03110311031E+009, -4.30689559076E-002, -6.39504274295E-002
+4.03120312031E+009, -4.54228633229E-002, -6.23476775272E-002
+4.03130313031E+009, -4.75962204742E-002, -6.06292644381E-002
+4.03140314031E+009, -4.98328916949E-002, -5.89043877599E-002
+4.03150315032E+009, -5.18699311366E-002, -5.70291131275E-002
