% MetaData :path,/Users/cwheeler/PycharmProjects/WaferScreen/waferscreen/pro/princeton/8/Band06/2020-10-28/1603929709.84-F_4.80_TO_5.00-BW_100.0-ATTEN_20.0-VOLTS_0.000_s21.csv|atten,20|band,6|datetime,2020-10-28 18:01:49|freq_center_GHz,4.9|freq_max_GHz,5.0|freq_min_GHz,4.800000000000001|freq_span_GHz,0.1999999999999993|freq_step,20002.00020001993|ifband_hz,100.0|location,princeton|plot_path,/Users/cwheeler/PycharmProjects/WaferScreen/waferscreen/pro/princeton/8/Band06/2020-10-28/1603929709.84-F_4.80_TO_5.00-BW_100.0-ATTEN_20.0-VOLTS_0.000_s21.pdf|raw_path,/Users/cwheeler/PycharmProjects/WaferScreen/waferscreen/raw/princeton/SMBK_wafer8/1603929709.84-F_4.80_TO_5.00-BW_100.0-ATTEN_20.0-VOLTS_0.000.CSV|time,1603929709.84|volts,0.0|wafer,8
% Header :freq_ghz,real,imag
4.800000000000001,0.04587773744934541,-8.929382543926365e-05
4.800020002,0.0460307540446608,-2.9972422751080308e-05
4.800040004,0.04599733992765101,2.8943827338999417e-06
4.800060006000001,0.045934194247402214,-3.7890899224972754e-05
4.800080008,0.04593228220207739,-2.845382351227433e-05
4.80010001,0.04595336863994229,3.609126154673764e-05
4.800120012000001,0.04606084214246338,8.832893583718589e-06
4.800140014,0.04595652469744359,2.1794403010412695e-05
4.800160016,0.04590628711620574,4.791197021735815e-05
4.800180018000001,0.04591823656907321,4.8843982187023356e-05
4.80020002,0.04586223847149369,9.948999408034703e-06
4.800220022,0.04598377026149289,-2.360467990997553e-05
4.800240024000001,0.04604040550839128,-5.270866208778244e-06
4.800260026,0.04596609265183466,-7.681639306648252e-06
4.800280028,0.04592253829568749,8.109398364705526e-05
4.800300030000001,0.045918746171473714,4.6896642814237e-06
4.800320032,0.045873680346475716,-2.6650686843080265e-05
4.800340034,0.04594303666809092,-4.859627830474701e-05
4.800360036000001,0.04583443524715649,4.562715142029418e-05
4.800380038,0.04600896539316583,2.819635006902875e-05
4.80040004,0.04592713497297581,-5.502239073872789e-06
4.800420042000001,0.04595904595725859,7.5143120757213e-05
4.800440044,0.04598753575364156,7.295614633529013e-05
4.800460046,0.04590218773491174,8.346337941945482e-05
4.800480048000001,0.04593731573119629,-5.238503516030377e-06
4.80050005001,0.04600965534679913,2.6576747979168563e-05
4.80052005201,0.04599044595264834,2.0922566963245057e-05
4.800540054010001,0.045966767701595426,7.231639359153198e-05
4.80056005601,0.04595332415007794,7.673277380042254e-06
4.80058005801,0.045963901290940475,9.969584294118074e-05
4.800600060010001,0.04597122716625532,7.28226995998088e-05
4.80062006201,0.045975931674721304,7.593266092947512e-05
4.80064006401,0.04591264380108646,1.5753067044790153e-05
4.800660066010001,0.04586201080321494,8.059386745490164e-05
4.80068006801,0.04596000519235532,0.00011473419741539828
4.80070007001,0.04595620385226114,8.493598377597514e-05
4.800720072010001,0.0460378725195093,6.812630071069761e-05
4.80074007401,0.04593817809246245,8.660300228164469e-05
4.80076007601,0.04603071129149451,-1.5206082853019831e-06
4.800780078010001,0.04592838017987555,8.476066541164215e-05
4.80080008001,0.04589689609256183,9.467283312809133e-05
4.80082008201,0.04597142214601029,0.00014374140817670009
4.800840084010001,0.04595894108632458,0.00010298669081869327
4.80086008601,0.04595642515188124,8.95550807944838e-05
4.80088008801,0.045952657676911195,0.00012017328789326598
4.800900090010001,0.04592803075917917,0.0001316939643017795
4.80092009201,0.04593736724558152,9.538580719603562e-05
4.80094009401,0.045954672856344914,0.00010495547236794023
4.800960096010001,0.045944156997597116,0.00016780537351589186
4.80098009801,0.04600766842762141,8.219944432691015e-05
4.80100010001,0.045954858648808716,0.00015072782531358117
4.801020102010001,0.04593249622306443,0.0001372998104190136
4.80104010401,0.04593667300460563,0.00015825691696455535
4.80106010601,0.045921552676109784,0.00011713221031893484
4.801080108010001,0.045996887950323265,9.880062879169885e-05
4.80110011001,0.04597530357375901,7.678004708605232e-05
4.80112011201,0.04599180629114604,0.00016136940319358764
4.801140114010001,0.045986285085119684,0.00019914010978090355
4.80116011601,0.046001222505689596,0.0001101152440187679
4.80118011801,0.04592366216728049,0.00019716735616597675
4.801200120010001,0.046008950807928245,0.00011347828292453122
4.80122012201,0.045946817518650415,0.00021605310261030644
4.80124012401,0.04595531987184832,0.00022508028929549978
4.801260126010001,0.046052309804852774,7.30679135436639e-05
4.80128012801,0.04596146032217587,0.00013283818463630595
4.8013001300100004,0.04593215810277667,0.0001147141047806513
4.801320132010001,0.04598200363681604,0.00011073822201912095
4.80134013401,0.04594551740986551,0.00018690811643014282
4.8013601360100004,0.04594221863925159,0.00023230169804821024
4.801380138010001,0.045910072475524,0.00018578040723007602
4.80140014001,0.045909621468155255,0.00019690850727872855
4.8014201420100004,0.04598345102425325,0.00022955084841340748
4.801440144010001,0.04596760331482199,0.00015248576460654556
4.80146014601,0.045880838309534634,0.00021196058869953766
4.8014801480100004,0.04595186031321434,0.00015281920855451242
4.801500150020001,0.0459337217751972,0.0001486102088265398
4.801520152020001,0.04602947040880592,0.00016861984746942282
4.8015401540200005,0.04595829046258132,0.0002256664907266219
4.801560156020001,0.045960601099016146,0.00023250271270137263
4.801580158020001,0.045938927103602305,0.00018830019922416383
4.8016001600200005,0.04604391437464836,0.000279965250585313
4.801620162020001,0.045861611599236615,0.0001766646245786839
4.801640164020001,0.04598954043444935,0.00015196063742107038
4.8016601660200005,0.045930974829972764,0.00020499287011850956
4.801680168020001,0.045949910138109056,0.0001947651617564758
4.801700170020001,0.04589010936982307,0.000237591923142811
4.8017201720200005,0.04602470974376288,0.00025247938298015096
4.801740174020001,0.045904806450154476,0.00026642242997343413
4.801760176020001,0.04599452077943581,0.0002959419151942269
4.8017801780200005,0.04592908203123888,0.0002315372207582142
4.801800180020001,0.04601017578660094,0.00018651759984374822
4.801820182020001,0.04597319936071265,0.0002282530571109144
4.8018401840200005,0.04598860642585153,0.00018942818312942672
4.801860186020001,0.045962219530159096,0.0003197227767659759
4.801880188020001,0.04593108375200183,0.0002930195602512155
4.8019001900200005,0.04599087872488979,0.0002987554578479622
4.801920192020001,0.04601241686311511,0.00029107143502977995
4.801940194020001,0.045957864279665396,0.00024139480763151963
4.8019601960200005,0.04595802256392163,0.00020565590350113058
4.801980198020001,0.04598897846830195,0.00026742221727940607
4.802000200020001,0.04597385722346312,0.0003101388655764904
4.8020202020200005,0.04595833797036829,0.00032111051146895
4.802040204020001,0.04592939351330187,0.00020973553985666887
4.802060206020001,0.045988685252231806,0.00031851320798951394
4.8020802080200005,0.04604993343270192,0.000217891619269793
4.802100210020001,0.04600371616711489,0.00022309489896820897
4.802120212020001,0.04603247209856097,0.0002347844378732221
4.8021402140200005,0.04601537284885651,0.0003170977058104957
4.802160216020001,0.04599657386949423,0.000269656656368536
4.802180218020001,0.04592142438254557,0.00027266936865391264
4.8022002200200005,0.045991128744769905,0.000227392468537993
4.802220222020001,0.04601065246087048,0.0002956426917547564
4.802240224020001,0.04594692121152809,0.0002556644401571148
4.8022602260200005,0.045969482492606226,0.0002555780430878625
4.802280228020001,0.04596728752623967,0.0002882766021545802
4.802300230020001,0.04594752748821609,0.0003031214777467796
4.8023202320200005,0.04603662080458811,0.00034170292508078903
4.802340234020001,0.04596628799567984,0.0003152109837721087
4.802360236020001,0.046070591542391355,0.0002951140707707599
4.8023802380200005,0.04599132166704995,0.00028426180636553777
4.802400240020001,0.04608151933839511,0.00036124122895668173
4.802420242020001,0.046008718265506204,0.0003086372472128132
4.8024402440200005,0.04602177840526285,0.00030612014758983966
4.802460246020001,0.04607101477844623,0.00029182471436035515
4.802480248020001,0.04600240883213376,0.0003231420761513233
4.8025002500300005,0.04600382036970354,0.0002634018877723729
4.80252025203,0.045965842538480066,0.00032794358572765456
4.80254025403,0.04608207549169486,0.0003507313744605424
4.8025602560300005,0.045990256576082494,0.000303868625025662
4.80258025803,0.0459779941468978,0.00031255005935394015
4.80260026003,0.04607225428360627,0.0003213214992121016
4.8026202620300005,0.045980615192123424,0.00040540335743242256
4.80264026403,0.046093084389602655,0.0002910183356953436
4.80266026603,0.04596335443317579,0.00032336045930593874
4.80268026803,0.04603408665093202,0.00040904203646883325
4.80270027003,0.04604340961385507,0.00037589281857423537
4.80272027203,0.046017126489112554,0.0003658463630834344
4.80274027403,0.04603301061034337,0.0003649925815777458
4.80276027603,0.04600127841029253,0.0003543094401306651
4.80278027803,0.04605550307117757,0.00034267695077972934
4.80280028003,0.04608273844833018,0.0004162535495575749
4.80282028203,0.04605699144964827,0.00041192985996737
4.80284028403,0.046024903829542135,0.0004263147911870088
4.80286028603,0.04603088952637989,0.0004551190736854782
4.80288028803,0.04604320049655054,0.0003524628031939571
4.80290029003,0.04607642989256023,0.0003876645413426541
4.80292029203,0.045997323428200815,0.0004537201863547835
4.80294029403,0.04613328451607576,0.00029050159658643854
4.80296029603,0.04609692461369642,0.0003858319869375522
4.80298029803,0.04611990656596286,0.0004478428979964935
4.80300030003,0.04595807416724887,0.00035830351051483605
4.80302030203,0.04602184185520247,0.000408892914593173
4.80304030403,0.04605978287798254,0.00041886279143026756
4.80306030603,0.04600625980006821,0.00037414972550498665
4.80308030803,0.04601473429141663,0.00038436212686826163
4.80310031003,0.04603890405415052,0.00041309412886853664
4.80312031203,0.04610755369543643,0.0003243526165075065
4.80314031403,0.04606585136692093,0.0004121857238543053
4.80316031603,0.046026902153698666,0.0004728088475908013
4.80318031803,0.04601280865738163,0.0004337720048540397
4.80320032003,0.04606086966742616,0.00038694977199085767
4.80322032203,0.046098124599389424,0.00039993982898784385
4.80324032403,0.0459918715502268,0.0003796604995745471
4.80326032603,0.046097766305880784,0.0004004802907273293
4.80328032803,0.04606841812617976,0.00043154035896935533
4.80330033003,0.04603815790968907,0.000390897042091826
4.80332033203,0.04610505963191455,0.0003989178010121875
4.80334033403,0.04612174580097507,0.0004579505253924452
4.80336033603,0.04602301856718896,0.0004505073353362043
4.80338033803,0.046088458393770786,0.00045712370779959696
4.80340034003,0.04604210227968961,0.0003762536600948139
4.80342034203,0.046075897040068745,0.0004875822474408129
4.80344034403,0.046062960854354816,0.0004619484274157957
4.80346034603,0.046038337877512214,0.000448892775687439
4.80348034803,0.046051542743063084,0.0004490742809851733
4.80350035004,0.04605919277164759,0.000564868003936592
4.8035203520400005,0.04605138814179044,0.00045218311325366
4.80354035404,0.04610396625957833,0.0005257495401524339
4.80356035604,0.046146158766027935,0.00042836593026178947
4.8035803580400005,0.04611757255110149,0.00044359521863697546
4.80360036004,0.04606491079859684,0.0005135282082270173
4.80362036204,0.046047650345197165,0.0004808912928651885
4.8036403640400005,0.046046714023037935,0.0004905492812498826
4.80366036604,0.04605872295734421,0.000534190032251817
4.80368036804,0.046121406807767364,0.0004814419925817954
4.8037003700400005,0.04604366540223286,0.00048152081011859464
4.80372037204,0.04604394717366256,0.0004984855680968256
4.80374037404,0.04606240589394727,0.00046200788803916603
4.8037603760400005,0.04605856279333446,0.0005250252599732514
4.80378037804,0.046180835110758704,0.00045131441087629953
4.80380038004,0.04609906904291368,0.0005337972074271318
4.8038203820400005,0.046107791022376325,0.0004668515939065107
4.80384038404,0.046097612948297416,0.0004770377896301057
4.80386038604,0.046064400518701136,0.0005604036570851061
4.8038803880400005,0.046139142632681866,0.0005275742800110441
4.80390039004,0.04609193250193528,0.0004808836434096577
4.80392039204,0.04609914958970841,0.0005234438417109554
4.8039403940400005,0.0461353194024862,0.0005065445161067743
4.80396039604,0.04606670535153951,0.00053174531524779
4.80398039804,0.046125664588514165,0.0005446728702631686
4.8040004000400005,0.046073775715543296,0.0005145931970531163
4.80402040204,0.046145662504686484,0.0005952197693092624
4.80404040404,0.04610102095931902,0.0005015396059699412
4.8040604060400005,0.04616773547198364,0.0005026222613113623
4.80408040804,0.04611233322218795,0.0005221221062148221
4.80410041004,0.046232517130707924,0.000499894741341335
4.8041204120400005,0.04611128812511873,0.0005548211733602771
4.80414041404,0.04611842224729477,0.0005199396401814576
4.80416041604,0.046160908723637165,0.0004985541906641863
4.8041804180400005,0.04614432511730826,0.0005399378750744694
4.80420042004,0.04614505139757525,0.0005344889361557784
4.80422042204,0.0461164238806729,0.0005651303071454472
4.8042404240400005,0.04613051963027211,0.0005739560845195511
4.80426042604,0.04612003357911102,0.0005520912232435328
4.80428042804,0.04611443312071477,0.0005576547808937488
4.8043004300400005,0.04615913301883988,0.0005616574943442974
4.80432043204,0.04616617708317277,0.0005556961517265411
4.80434043404,0.046089940383955516,0.0004972529192704377
4.8043604360400005,0.04611527337901356,0.0005940178071606444
4.80438043804,0.0461171626166328,0.0005715891280796276
4.80440044004,0.04609364031671889,0.000628257699682444
4.8044204420400005,0.0461890139831087,0.0005668776948661572
4.80444044404,0.046141891491103676,0.00046227183841431214
4.80446044604,0.04614841109518918,0.0005794503699526037
4.8044804480400005,0.04611519907902373,0.0005678896968359711
4.804500450050001,0.04610826884601708,0.0006105421462881087
4.80452045205,0.04614519635023097,0.0005762783313489105
4.8045404540500005,0.046136277394001404,0.0005952041093837263
4.804560456050001,0.04615426484895396,0.0005272703084290174
4.80458045805,0.0461361811918876,0.000554754278811664
4.8046004600500005,0.04612704259440589,0.0006202707194826809
4.804620462050001,0.04621857181045373,0.0005573703734791657
4.80464046405,0.046162753152519,0.0005420163253087602
4.8046604660500005,0.04610466237519024,0.0006131037109133094
4.804680468050001,0.046232396637198865,0.0005911890490932284
4.80470047005,0.04614657310645482,0.0006232426292363345
4.8047204720500005,0.046134252159773965,0.0006186930920198605
4.804740474050001,0.04612923994054347,0.0005584510213029002
4.80476047605,0.046158144918678264,0.00060306129482658
4.8047804780500005,0.04618864931486343,0.0005780659044885613
4.804800480050001,0.046171974113667094,0.0006247280765232961
4.80482048205,0.046210865715497984,0.0006352086025052297
4.8048404840500005,0.04625092044379647,0.0006437191571139061
4.804860486050001,0.046240058331463496,0.000595010955732474
4.80488048805,0.04619549786879208,0.0005833707977978986
4.8049004900500005,0.04617574345915351,0.0006260279194222097
4.804920492050001,0.04612464589243641,0.0005899083775711082
4.80494049405,0.04626714057440866,0.0005650216198675988
4.8049604960500005,0.046194926696255745,0.0006633571641817791
4.804980498050001,0.046168602188240246,0.0006011429835077724
4.80500050005,0.04615729802135752,0.000664743706664802
4.8050205020500005,0.046248949860749226,0.0006401757599644974
4.805040504050001,0.04620660819656577,0.0007150875058844416
4.80506050605,0.04623247744668985,0.0006176446020751958
4.8050805080500005,0.04622675147493362,0.0006687902507936973
4.805100510050001,0.04619739131612306,0.0005707744667943285
4.80512051205,0.04619402630415869,0.0005802279587433252
4.8051405140500005,0.04618846684568078,0.0005697598632089275
4.805160516050001,0.046276372409999336,0.0006656654476281908
4.80518051805,0.046211003235063164,0.0007005804367116557
4.8052005200500005,0.04622266627301857,0.0006094668109386144
4.805220522050001,0.04622893948935834,0.0006174145522566121
4.80524052405,0.046223523313446535,0.000648502571384435
4.8052605260500005,0.046178249820578235,0.000660990856740179
4.805280528050001,0.046213018271757035,0.00069680643344101
4.80530053005,0.0461409516664078,0.0006595994159067607
4.8053205320500005,0.046162234551610976,0.0006200038039699436
4.805340534050001,0.04624485391573753,0.0006006256454316912
4.80536053605,0.046234344708480826,0.000645148561168464
4.8053805380500005,0.046240629624985805,0.0007327460061116384
4.805400540050001,0.046249648391297596,0.0006412816600110151
4.80542054205,0.046233038698075886,0.0007560921623748496
4.8054405440500005,0.04617782978680598,0.0006409775234501175
4.805460546050001,0.04631340496465143,0.0007106269252474227
4.80548054805,0.046309512887146194,0.0005961450248400599
4.8055005500600005,0.04624911277470513,0.0005822775451488627
4.805520552060001,0.04626663821338959,0.0006895942604513705
4.805540554060001,0.04623805172143512,0.0007150120383001696
4.8055605560600005,0.04628578657999706,0.0007138540674379822
4.805580558060001,0.046252849740098176,0.0006508035866920857
4.805600560060001,0.04618380822053228,0.0006359747812597072
4.8056205620600005,0.046208322118766194,0.0006953355846450737
4.805640564060001,0.04629898309556596,0.0006772112280943356
4.805660566060001,0.04627883429635023,0.0006269837941156146
4.8056805680600005,0.04626871288754801,0.0006472615903025947
4.805700570060001,0.04625299968239346,0.000631876025292584
4.805720572060001,0.04619722089341702,0.0006815274796451477
4.8057405740600005,0.04629094020649252,0.0007189598468710402
4.805760576060001,0.04626172451632644,0.0006433300576761947
4.805780578060001,0.04625173581572637,0.000656896547126213
4.8058005800600005,0.0462091018746697,0.0006949936755808982
4.805820582060001,0.046242680824697895,0.0006496886206082408
4.805840584060001,0.04619966311080782,0.0007046124976457339
4.8058605860600005,0.046310736814121484,0.0006779374460640294
4.805880588060001,0.04627276575204535,0.0007456666304957657
4.805900590060001,0.04635901491162,0.0007155078370808601
4.8059205920600006,0.04637135723994877,0.0006808339932523715
4.805940594060001,0.04627673392032664,0.0007263540217583089
4.805960596060001,0.046323108736539845,0.0007316800472994961
4.8059805980600006,0.04631640173299319,0.0006563540156310395
4.806000600060001,0.04631701249886702,0.0007290569811152191
4.806020602060001,0.04627757569912487,0.0007589530528525484
4.8060406040600006,0.04626236105905543,0.0007233909544140486
4.806060606060001,0.046295919843696354,0.0006663853883380269
4.806080608060001,0.04636110524990852,0.0007218988817181762
4.8061006100600006,0.046312692386972804,0.0006757481101882026
4.806120612060001,0.04626872669360596,0.0007461621926687506
4.806140614060001,0.046272475188016846,0.0006428581269606083
4.806160616060001,0.046348252163462986,0.0006955785052333435
4.806180618060001,0.04634913062315628,0.0007896328766038366
4.806200620060001,0.04632196851456389,0.0007317330803430049
4.806220622060001,0.046364437246913665,0.0007701246115661385
4.806240624060001,0.046374426767876675,0.0007179513354569761
4.806260626060001,0.04638815653872933,0.0007155023220634833
4.806280628060001,0.04631151278178441,0.0006984597920367264
4.806300630060001,0.046400676876121594,0.0007504074841734529
4.806320632060001,0.046329177415987424,0.0007258177263515624
4.806340634060001,0.046276339526875584,0.0007220320153542431
4.806360636060001,0.04622957199221767,0.0007779921257473656
4.806380638060001,0.04639622347954005,0.0008014299753896642
4.806400640060001,0.046321986247437344,0.0007683984679141415
4.806420642060001,0.046325597941874797,0.0006756804479748878
4.806440644060001,0.046273284958720226,0.0007472161565947565
4.806460646060001,0.04634943158442748,0.000650293544716754
4.806480648060001,0.04637418403504752,0.0007718803817718355
4.80650065007,0.04635908273333952,0.0007144401773355319
4.80652065207,0.046354798776912495,0.0007275350860958887
